!Agilent N9923A: A.07.32
!Date: Sunday, 08 November 2020 06:45:05
!Model: N9923A
!Serial: MY52412229
!GPS Latitude: 
!GPS Longitude: 
!GPS TimeStamp: 0001-01-01 00:00:00Z
!GPS Seconds Since Last Read: 0
!CHECKSUM:0534829777
!Correction: S11(ON U)
!S1P File: Measurement: S11:
# Hz S DB R 50
2000000	-0.0163223058638282	-1.97576402309889
3247500	-0.0122891324754822	-3.22199820111937
4495000	-0.0119786754534524	-4.4966966551738
5742500	-0.00856906213752403	-5.77692194522368
6990000	-0.00866269283136159	-7.05763406847531
8237500	-0.00987785947661394	-8.3576920644186
9485000	-0.0159135568787592	-9.70553600034318
10732500	-0.0212133369620569	-11.1205364365656
11980000	-0.0322507203358238	-12.6660005019476
13227500	-0.0543355108048821	-14.4579715490475
14475000	-0.124661628616101	-16.8458661562749
15722500	-0.730194094833687	-21.2731798386306
16970000	-0.409249721430789	-10.1175919446033
18217500	-0.0780879814740143	-15.3930296904757
19465000	-0.0802698374436583	-17.9901890023721
20712500	-0.161849868109122	-20.5016828615702
21960000	-0.585463160619047	-21.9047965574516
23207500	-0.617877514603283	-19.0915289349688
24455000	-0.203868820154662	-20.4669605893743
25702500	-0.118119004248612	-22.4016758473358
26950000	-0.088926692099349	-24.2224761463093
28197500	-0.101115042981568	-25.991626882727
29445000	-0.194142314250453	-27.2858715301616
30692500	-0.125493325367427	-28.3363633730821
31940000	-0.11828876446345	-30.235642935226
33187500	-0.161607750640392	-32.3633080211517
34435000	-0.328062189306671	-34.990580659674
35682500	-0.935384527511915	-37.6566921497364
36930000	-1.801591283335	-29.5558508061119
38177500	-0.492301564556814	-28.9842612341589
39425000	-0.215856317284132	-32.1747431855955
40672500	-0.129351522226129	-34.4456685127209
41920000	-0.104204381570484	-36.4242623656439
43167500	-0.0895613400267019	-38.2091596456614
44415000	-0.0786865303474944	-40.0355457930248
45662500	-0.093026541805559	-42.0281465216135
46910000	-0.136803810279589	-44.4671126156975
48157500	-0.285688142733814	-47.8654968355307
49405000	-1.15714794916631	-52.9780561787956
50652500	-2.37495099751124	-40.5619053921736
51900000	-0.79236341769384	-39.1590747128918
53147500	-0.44838492832353	-42.9500225813337
54395000	-0.416269261128635	-45.387247148998
55642500	-0.368571981070612	-47.3179935630006
56890000	-0.384287268652011	-50.2065932761653
58137500	-0.878627763695149	-53.8135325694006
59385000	-1.644886362094	-48.4056396629858
60632500	-0.87071970740427	-46.8087683271563
61880000	-0.642403490324052	-48.7532308906783
63127500	-0.560213049912968	-50.0673077910822
64375000	-0.506909097751073	-51.0576977561608
65622500	-0.395215845091322	-52.2078205950964
66870000	-0.326528050853498	-53.4642914748191
68117500	-0.269026782910773	-54.8338167993025
69365000	-0.256654630925745	-56.3742430911755
70612500	-0.237779156498323	-57.7892774556093
71860000	-0.244030141569263	-59.3633717181792
73107500	-0.294690216962628	-60.9949040825297
74355000	-0.390508418997924	-62.7087590626783
75602500	-0.644428486917782	-64.2546986125327
76850000	-1.12173450881662	-63.5331656348708
78097500	-0.880775365172818	-60.2809266699394
79345000	-0.458561445657434	-61.3781176098822
80592500	-0.315182867467997	-63.2857496748903
81840000	-0.246769993493121	-64.9658070632286
83087500	-0.228940747063876	-66.5620950903383
84335000	-0.251335588840392	-68.1263035333493
85582500	-0.279534809339208	-69.6572473164205
86830000	-0.334448542170946	-71.3349845915757
88077500	-0.549023791813006	-73.1104183905238
89325000	-0.941920461462248	-71.5996111403699
90572500	-0.417713154863416	-71.3540998548668
91820000	-0.346060479609737	-73.9830781367126
93067500	-0.40953759170465	-76.4139291130453
94315000	-0.601789535084044	-78.7941981257961
95562500	-1.01725811673542	-80.8055314613655
96810000	-1.69050142501698	-80.6643782295534
98057500	-2.09414546339886	-76.0804868045383
99305000	-1.72862211137698	-72.3191849347239
100552500	-1.2723395806829	-71.8968185301319
101800000	-0.934607723319466	-72.7212284929064
103047500	-0.771068194747105	-74.100631030424
104295000	-0.653590846150973	-75.0372030905764
105542500	-0.519895183769761	-76.026125374701
106790000	-0.445141456976382	-77.3344135582902
108037500	-0.406846040172065	-78.6240001331407
109285000	-0.381399644657464	-79.7313750092127
110532500	-0.373304989422842	-80.7459947760289
111780000	-0.374126347407899	-81.6809908943996
113027500	-0.374210311761621	-82.4719569344452
114275000	-0.386144551389198	-83.1570440000677
115522500	-0.372968880509894	-83.8363638750202
116770000	-0.329842149358788	-84.5782787557249
118017500	-0.291390600724615	-85.3930643910683
119265000	-0.268256346124987	-86.2601215104337
120512500	-0.24225858838507	-87.0657244587059
121760000	-0.232010680317508	-87.8733685143102
123007500	-0.225282371864233	-88.7477942493803
124255000	-0.199122352900239	-89.6508975488653
125502500	-0.187600949070416	-90.5308525361454
126750000	-0.184504250945051	-91.3685102934503
127997500	-0.174145648259522	-92.1975786393179
129245000	-0.184287333745789	-92.9606003530533
130492500	-0.197677360230199	-93.7684415243851
131740000	-0.186552647751406	-94.5423933255824
132987500	-0.165636367927272	-95.3399582251444
134235000	-0.161580410860512	-96.2319340302026
135482500	-0.156685872183193	-97.1222588377646
136730000	-0.177888638657827	-97.971392674687
137977500	-0.233328000317086	-98.8639862675773
139225000	-0.271376794129759	-99.390444707593
140472500	-0.250200776569192	-99.9334385903138
141720000	-0.241388909987119	-100.706063876186
142967500	-0.254822437926456	-101.532464214118
144215000	-0.244930161092111	-102.023081669178
145462500	-0.265164142432918	-102.958692321819
146710000	-0.28606859382898	-103.824971432707
147957500	-0.296976420692776	-104.586103671656
149205000	-0.318228305686106	-105.472135092188
150452500	-0.360357534913846	-106.372096265753
151700000	-0.430663287027435	-107.152943776667
152947500	-0.528129396349812	-107.900838770693
154195000	-0.640844337551619	-108.602393906432
155442500	-0.784425505909282	-108.918367663825
156690000	-0.921997927728147	-108.491813701269
157937500	-0.937003988934055	-107.6630892129
159185000	-0.845285357269161	-107.171358079503
160432500	-0.751754812568072	-107.259342382801
161680000	-0.674752084577448	-107.720515541416
162927500	-0.59925936182797	-108.17296760582
164175000	-0.532297833857392	-108.739583211529
165422500	-0.485144362033979	-109.303628688225
166670000	-0.4301342253196	-109.86513359964
167917500	-0.399384919208652	-110.519417503222
169165000	-0.384376566008182	-111.281813269119
170412500	-0.363060252501609	-111.961368812344
171660000	-0.343360184065712	-112.527193501924
172907500	-0.318320660954234	-113.118431280099
174155000	-0.283138251705098	-113.743777805652
175402500	-0.276403219609854	-114.425422800762
176650000	-0.308387246723871	-115.124382678225
177897500	-0.279665065152612	-115.780117393024
179145000	-0.280048857165214	-116.370713018514
180392500	-0.27766050293421	-116.900751617788
181640000	-0.259314648894254	-117.379332746382
182887500	-0.245232164998413	-117.876859603325
184135000	-0.240888095491443	-118.514629628322
185382500	-0.225148260726005	-119.161451231733
186630000	-0.209645448252362	-119.749560238115
187877500	-0.198654779485702	-120.330467861106
189125000	-0.178416473842345	-120.903367035485
190372500	-0.170123244135805	-121.448477507161
191620000	-0.176122108739693	-122.075469159661
192867500	-0.164546322003528	-122.727628276296
194115000	-0.146400667044117	-123.346020001837
195362500	-0.139772841796838	-123.947364545036
196610000	-0.127116364814176	-124.551221334452
197857500	-0.121850762452057	-125.104446013237
199105000	-0.132666317264134	-125.731940441729
200352500	-0.133268194656375	-126.403242162053
201600000	-0.128555446924517	-126.998646467031
202847500	-0.121950042471993	-127.567193570209
204095000	-0.112290187744799	-128.127049373516
205342500	-0.111112674166778	-128.66802977916
206590000	-0.122596316732861	-129.245605742878
207837500	-0.126538374300432	-129.914026474544
209085000	-0.123514837087494	-130.570434368551
210332500	-0.125067188989158	-131.170585005083
211580000	-0.126354157779264	-131.752434177854
212827500	-0.133269100925802	-132.272209167651
214075000	-0.154912431610855	-132.797490436723
215322500	-0.170754024466998	-133.370934928894
216570000	-0.168117611503405	-133.931234924883
217817500	-0.164253530423531	-134.475202016915
219065000	-0.160540780523808	-135.054960680099
220312500	-0.161391298901221	-135.620851426419
221560000	-0.185368309604193	-136.158810919067
222807500	-0.211309830181499	-136.772975074416
224055000	-0.228855267024913	-137.34543943296
225302500	-0.247999312326118	-137.856390282972
226550000	-0.269042301429896	-138.296314466119
227797500	-0.279772351696482	-138.630158129147
229045000	-0.299533621604208	-138.940957638851
230292500	-0.31023348639192	-139.305844211293
231540000	-0.296825218647412	-139.686667563897
232787500	-0.270721058707649	-140.06587713843
234035000	-0.241745224156487	-140.517161160427
235282500	-0.21368416307695	-140.976285549234
236530000	-0.20094733817525	-141.472007256995
237777500	-0.198810106328406	-142.044794331535
239025000	-0.187610107470027	-142.662937939638
240272500	-0.169447602178361	-143.23679185719
241520000	-0.156042506507566	-143.793961710862
242767500	-0.137041378304281	-144.342024274695
244015000	-0.131237242584456	-144.867054159083
245262500	-0.137221403159164	-145.478499832275
246510000	-0.133989090726677	-146.114317443874
247757500	-0.117777063365077	-146.708130888985
249005000	-0.10982953048443	-147.307005367266
250252500	-0.0964227366661213	-147.876516701233
251500000	-0.0955931951996204	-148.423973357438
252747500	-0.106657375453125	-149.031093034258
253995000	-0.11149592317528	-149.693528026306
255242500	-0.106882979668938	-150.329692449133
256490000	-0.104630059436275	-150.938933993239
257737500	-0.0951409575621739	-151.503566205753
258985000	-0.0952734935576927	-152.04034954601
260232500	-0.104594503157185	-152.624111229627
261480000	-0.11124533533495	-153.275301445397
262727500	-0.107191474808118	-153.927805145877
263975000	-0.106016264597091	-154.551950576582
265222500	-0.102084931370682	-155.15760126811
266470000	-0.102312616548376	-155.717924839798
267717500	-0.112298297584268	-156.319453975854
268965000	-0.125941618213968	-156.976963384911
270212500	-0.126125124410775	-157.658678343663
271460000	-0.12356400407565	-158.308419396773
272707500	-0.124946403246613	-158.951751410572
273955000	-0.127140877543892	-159.54137441466
275202500	-0.139477275990018	-160.130416130389
276450000	-0.152488094219579	-160.80982035736
277697500	-0.156180853963983	-161.506326252247
278945000	-0.158602422510774	-162.173038791599
280192500	-0.164790703197142	-162.814642312804
281440000	-0.169212197368863	-163.405513835631
282687500	-0.180949685488593	-163.98702889584
283935000	-0.195523747528019	-164.649685703682
285182500	-0.1971282333865	-165.338859158676
286430000	-0.194637356174373	-166.033511118891
287677500	-0.193956025377107	-166.720950150965
288925000	-0.192802764167659	-167.360721217861
290172500	-0.204984495421313	-167.999844014906
291420000	-0.218673161080503	-168.687245671894
292667500	-0.222496941975679	-169.434539129345
293915000	-0.220851531297671	-170.153535073576
295162500	-0.219382207408695	-170.876989739988
296410000	-0.21929771009407	-171.575711777662
297657500	-0.228522206758716	-172.271177711516
298905000	-0.247516562123749	-173.016994857571
300152500	-0.260985314144688	-173.801203197808
301400000	-0.26292063346346	-174.566673424176
302647500	-0.263989902029691	-175.327015484235
303895000	-0.262541176750465	-176.076086843733
305142500	-0.266196147451742	-176.81140993657
306390000	-0.278725811759926	-177.617520024459
307637500	-0.292730855901817	-178.498740586765
308885000	-0.300505158715694	-179.390880606046
310132500	-0.309477019902468	179.758619503213
311380000	-0.319772892061524	178.929333333042
312627500	-0.337195952480364	178.129618743077
313875000	-0.363833772310015	177.314665847779
315122500	-0.389914276005628	176.43438252123
316370000	-0.405159175610799	175.540141963222
317617500	-0.417972502776021	174.674384267086
318865000	-0.42949349129072	173.806504775019
320112500	-0.449478998235966	172.985821353607
321360000	-0.472746579977299	172.167735842536
322607500	-0.492987227242966	171.269723696241
323855000	-0.508323146194166	170.323213267311
325102500	-0.52076999155707	169.393467375488
326350000	-0.53035323553392	168.478077625345
327597500	-0.542433736427751	167.56451517432
328845000	-0.556941602626573	166.610558807323
330092500	-0.57642072720404	165.592867411614
331340000	-0.592748875675083	164.49214047296
332587500	-0.615005453755116	163.421753782254
333835000	-0.635170125972989	162.384063967908
335082500	-0.661781692735123	161.372814686897
336330000	-0.689573114344121	160.373248983796
337577500	-0.714399605650177	159.321715184055
338825000	-0.728609354989642	158.200456936308
340072500	-0.739522762911172	156.99750590177
341320000	-0.758832165263776	155.760786569883
342567500	-0.794002031546412	154.589340716438
343815000	-0.831557785727632	153.4406882623
345062500	-0.869563850024554	152.226323986592
346310000	-0.907082377235458	150.941437870771
347557500	-0.949287440253884	149.630136797893
348805000	-0.990892709422075	148.401092028817
350052500	-1.03087937521068	147.241074003589
351300000	-1.06428388658448	146.02654211937
352547500	-1.10318997851042	144.738822459535
353795000	-1.14089499619259	143.351382162527
355042500	-1.19262286229937	141.898817232505
356290000	-1.2469985964452	140.534136692922
357537500	-1.30126438495297	139.274436303084
358785000	-1.34800592187608	137.993357238878
360032500	-1.39088915831222	136.754506004504
361280000	-1.39671771108393	135.4582668875
362527500	-1.39613907388873	133.788324277338
363775000	-1.41471737383364	131.933501076612
365022500	-1.47751943319438	130.037134161309
366270000	-1.5661735409998	128.209959335999
367517500	-1.67271121345069	126.497044775566
368765000	-1.77636962188136	124.930703293009
370012500	-1.87335347003397	123.383595202341
371260000	-1.94972856445325	121.86945095575
372507500	-2.01250099303715	120.367392753484
373755000	-2.07217966922788	118.632369163253
375002500	-2.14038478559781	116.824042915339
376250000	-2.22939380534508	114.859303780774
377497500	-2.37438301945025	113.018868208229
378745000	-2.49960885126169	111.564112284547
379992500	-2.57837958281594	110.30405696977
381240000	-2.57970835885344	108.774303116352
382487500	-2.61749266715721	106.502381019552
383735000	-2.72406095139699	104.435042599812
384982500	-2.84433020206303	102.50204358267
386230000	-2.95357496044363	100.718381943506
387477500	-3.05024158601682	99.0871061183641
388725000	-3.12795625527564	97.4539174496596
389972500	-3.15174548631759	95.8063834703029
391220000	-3.13468556717231	93.804855243075
392467500	-3.14658296106476	91.3750271731584
393715000	-3.17506693094191	88.8297067264449
394962500	-3.23479040418287	86.0962746234106
396210000	-3.34902208075248	83.2446726615479
397457500	-3.48539615451615	80.5209666358874
398705000	-3.64269641605924	78.0807368478592
399952500	-3.77581590292677	75.7903009432946
401200000	-3.89741918357733	73.5443775846261
402447500	-3.99162826524038	71.2815749238512
403695000	-4.09425209727274	68.725111996036
404942500	-4.1971139119582	66.0993605889518
406190000	-4.32599843456423	63.4560077645645
407437500	-4.46857170231336	61.0672936956041
408685000	-4.57503727716501	58.9658911313296
409932500	-4.62642055895396	56.700949609781
411180000	-4.67251612892281	53.9284990720735
412427500	-4.76787150010177	50.7788547511756
413675000	-4.93833986413919	47.938867192026
414922500	-5.09212699115963	45.6917000071597
416170000	-5.16926165151235	43.7233204930843
417417500	-5.18396110841057	41.2433947589761
418665000	-5.24246830319581	38.2032125923295
419912500	-5.36971849710417	35.1727716678193
421160000	-5.50089718731774	32.5938536565407
422407500	-5.59958671687786	30.1633964861838
423655000	-5.68757109459743	27.8754410962227
424902500	-5.76732632770512	25.5548261746249
426150000	-5.82715740069139	23.2495898627006
427397500	-5.8544787654065	20.6468531413555
428645000	-5.90610554876256	18.0202578133432
429892500	-5.95751124267328	15.5645343693974
431140000	-6.01219975436529	13.4399401369197
432387500	-6.01089242741569	11.2733845713365
433635000	-6.01855830918754	8.74332839653079
434882500	-6.06895169785957	6.30063534233116
436130000	-6.03663231625546	4.37975995735945
437377500	-5.9068670433042	1.76596170947036
438625000	-5.88556004561978	-1.22836368269698
439872500	-5.90100459695409	-3.84614533037711
441120000	-5.84229762248446	-6.56515343209173
442367500	-5.82667724990891	-10.1673858451136
443615000	-5.96381223030228	-13.7702257015521
444862500	-6.21087479181353	-16.4909305460308
446110000	-6.46232863801926	-17.8150182112233
447357500	-6.56676747558861	-18.3870331191751
448605000	-6.50317839635707	-19.0195976656334
449852500	-6.32413300790778	-20.5043832631738
451100000	-6.1395110791538	-22.849414225871
452347500	-6.01218021281806	-25.6015723569111
453595000	-5.97470909481857	-28.473826492951
454842500	-6.01952008908344	-31.4069812107654
456090000	-6.18582931874309	-34.1610033930033
457337500	-6.4441314386439	-35.5937676907618
458585000	-6.47234128326212	-35.5885956510416
459832500	-6.20826794941045	-36.5326013737538
461080000	-5.98744298462744	-39.0188876996455
462327500	-5.92115221300011	-42.1775266456713
463575000	-6.00114861129394	-45.2486658816834
464822500	-6.16277196097582	-47.6085594619741
466070000	-6.27178398161459	-49.443389449012
467317500	-6.3466972910099	-51.4348043028771
468565000	-6.50810657804866	-53.3632090081752
469812500	-6.73554767063784	-54.7096771317196
471060000	-6.93070831247522	-55.2464116938231
472307500	-7.01455536528886	-55.2695617211464
473555000	-6.93259411659108	-55.6366669001745
474802500	-6.80360895814917	-57.0240306765115
476050000	-6.81043808977475	-59.0329820213499
477297500	-6.99714114950318	-60.464403786016
478545000	-7.12172355976637	-61.0030325106405
479792500	-7.19164046737409	-61.7770333837913
481040000	-7.3418211401196	-62.3733058478562
482287500	-7.459276087867	-61.9788893592228
483535000	-7.38326795224047	-60.869400972248
484782500	-7.18191853938616	-60.69907302423
486030000	-6.97096087950778	-61.1605012484627
487277500	-6.7706117690514	-62.3623168122017
488525000	-6.63647879694212	-63.914753966384
489772500	-6.52744986186703	-65.3475027634679
491020000	-6.42087200612296	-67.0194693508251
492267500	-6.43225146792728	-68.829510687247
493515000	-6.49791993104088	-70.3884148898184
494762500	-6.6006608154429	-71.5024457014617
496010000	-6.64700369050251	-72.098869608589
497257500	-6.62266129255634	-72.675501861289
498505000	-6.56792634866927	-73.3148470425193
499752500	-6.50641055713825	-73.9401285965928
501000000	-6.39959781679747	-74.8971443606023
502247500	-6.28545692268668	-76.498294690052
503495000	-6.24235763224808	-78.5296060849482
504742500	-6.28723315628477	-80.7515149298585
505990000	-6.42482388005258	-82.6155286233551
507237500	-6.64099791044478	-83.6999289972551
508485000	-6.78601560747326	-84.097907530949
509732500	-6.82112798295517	-84.7492319561316
510980000	-6.85427774090231	-85.8140960663363
512227500	-6.88567135890868	-87.1971875649931
513475000	-7.005867775655	-89.0753379547209
514722500	-7.31246731398626	-90.4467404893804
515970000	-7.66081603941516	-90.6173294552287
517217500	-7.88466999283759	-90.1696718888368
518465000	-8.01017796029073	-89.85895994199
519712500	-8.1081273777555	-89.9044010374031
520960000	-8.27215789931793	-89.9947169617884
522207500	-8.47522014432308	-89.162268514767
523455000	-8.5501561359814	-87.5535086398153
