!Agilent N9923A: A.07.32
!Date: Sunday, 08 November 2020 05:58:03
!Model: N9923A
!Serial: MY52412229
!GPS Latitude: 
!GPS Longitude: 
!GPS TimeStamp: 0001-01-01 00:00:00Z
!GPS Seconds Since Last Read: 0
!CHECKSUM:1095542219
!Correction: S11(ON U)
!S1P File: Measurement: S11:
# Hz S DB R 50
2000000	-0.00807609541845135	179.008295405198
3247500	-0.00929515412802594	178.479951758687
4495000	-0.00198268939678763	177.942096239926
5742500	-0.00114949944179376	177.426247431742
6990000	-0.00841129003013654	176.90063753073
8237500	-0.0113566967936423	176.346925911771
9485000	-0.0126834853998808	175.781979358443
10732500	-0.00847071780329367	175.245399250462
11980000	-0.00541627585834229	174.709299801354
13227500	-0.00582006712936732	174.175487047202
14475000	-0.00929814499020491	173.635237526924
15722500	-0.0243229979708704	173.088315905933
16970000	-0.0185514355634868	172.550107724249
18217500	-0.0124682112943335	171.977795773754
19465000	-0.00798340060837474	171.428471312271
20712500	-0.00968014869512422	170.882441709452
21960000	-0.0165311165608446	170.376258439165
23207500	-0.0209222641565338	169.849922065026
24455000	-0.0200583607313961	169.269917567981
25702500	-0.0164484062968164	168.697233920151
26950000	-0.0127100380731597	168.154132231234
28197500	-0.00766802024190839	167.62170234257
29445000	-0.011162994302311	167.074246794196
30692500	-0.01671577470355	166.498728728201
31940000	-0.02759789534218	165.875360188902
33187500	-0.0509960766192971	165.354015631212
34435000	-0.040283823423938	164.993491116004
35682500	-0.0240215409017221	164.469099675848
36930000	-0.0171291938933082	163.910326246266
38177500	-0.0205349210044223	163.360663616861
39425000	-0.0229166242595843	162.764042406886
40672500	-0.0218316720780664	162.190384060083
41920000	-0.0189620731467067	161.60655517204
43167500	-0.0165294939071286	161.039048156911
44415000	-0.0152825235188946	160.493036063208
45662500	-0.021267152299546	159.924037176073
46910000	-0.0260301249480671	159.299724927496
48157500	-0.0259457850311961	158.681644839953
49405000	-0.0239340144070096	158.063982611973
50652500	-0.0241439913766604	157.424458432903
51900000	-0.0257456685126173	156.777706234715
53147500	-0.0507097101662976	156.087897246613
54395000	-0.104843918017672	155.734502117707
55642500	-0.0568778793925356	155.223601527347
56890000	-0.0412621716803177	154.451947346149
58137500	-0.0494027877516988	153.637969697157
59385000	-0.109308090603855	152.818597301812
60632500	-0.155856012014122	152.95640777268
61880000	-0.0972771312210693	152.438330642712
63127500	-0.0749502826938666	151.703006767475
64375000	-0.0632971823505837	150.992391694272
65622500	-0.0594983884877705	150.268754669629
66870000	-0.0577300165551063	149.554400656086
68117500	-0.0655697608881494	148.817797696142
69365000	-0.0996937038642227	148.009212725001
70612500	-0.158768774031308	147.285827134714
71860000	-0.230545285951862	146.976780072966
73107500	-0.230797509890547	146.949639524208
74355000	-0.172944227752873	146.619356317371
75602500	-0.129564645751135	146.106121466656
76850000	-0.104124234222554	145.410936350888
78097500	-0.0901592409315838	144.665150599821
79345000	-0.0813137190459157	143.948349661106
80592500	-0.0734545636856109	143.218154778762
81840000	-0.0646680534589897	142.54208233734
83087500	-0.0580908365901746	141.866610847359
84335000	-0.0626478680774645	141.16675329233
85582500	-0.0653013212341041	140.425646857673
86830000	-0.0628530018687163	139.668881565086
88077500	-0.0678613305585457	138.907549020477
89325000	-0.0685273057483834	138.117379813345
90572500	-0.0741174246535425	137.352328292625
91820000	-0.12369498229183	136.679706693136
93067500	-0.108226892006111	136.182293675063
94315000	-0.0955981649996201	135.381290651451
95562500	-0.0998578172405365	134.552163054722
96810000	-0.102463478823252	133.726874572369
98057500	-0.102873853388545	132.93823989049
99305000	-0.119588901127705	132.124624954657
100552500	-0.146362481855489	131.264956699533
101800000	-0.173767755197267	130.480848991887
103047500	-0.212825046730732	129.711403542125
104295000	-0.257171296067065	129.067345134256
105542500	-0.267982095283385	128.733440216846
106790000	-0.230559420168954	128.202516401878
108037500	-0.212999080608999	127.351882919089
109285000	-0.209376446606386	126.46664983057
110532500	-0.218984301721211	125.569523200944
111780000	-0.238485391096257	124.632305034372
113027500	-0.264279995319749	123.813293626573
114275000	-0.304170758680083	123.059956698171
115522500	-0.36019462553813	122.268794677833
116770000	-0.418324664065598	121.583219471748
118017500	-0.491638816135819	121.106185880993
119265000	-0.538220638201114	120.878809486611
120512500	-0.521661733170765	120.845761914713
121760000	-0.436507826620554	120.623482077162
123007500	-0.358914809326482	119.917386176809
124255000	-0.301683370234717	118.965665702652
125502500	-0.269038586048888	117.942765613479
126750000	-0.255929228352863	116.819034683982
127997500	-0.25201717576256	115.73263009006
129245000	-0.2660626688606	114.821119085916
130492500	-0.28375193536545	113.944998220322
131740000	-0.293453173387765	113.047047097275
132987500	-0.292302970788023	112.149598999715
134235000	-0.293954306429811	111.123003254168
135482500	-0.286660653150902	110.019299686527
136730000	-0.294035237033775	108.963845849407
137977500	-0.337742154307885	107.894713734305
139225000	-0.38347811517386	106.930900836681
140472500	-0.420608006616651	106.070651350747
141720000	-0.46155453935239	105.150576391598
142967500	-0.499686986276695	104.316437679551
144215000	-0.509829404846225	103.613616301972
145462500	-0.529715722664698	102.933934294169
146710000	-0.538663087221059	102.156784906658
147957500	-0.53924521031536	101.433696875599
149205000	-0.529074788709247	100.69018788893
150452500	-0.4989208449784	99.8051171206112
151700000	-0.458943349124476	98.8647472832784
152947500	-0.439053758012552	97.8728711425794
154195000	-0.425330149821916	96.8392025147409
155442500	-0.413117192100656	95.7074587276318
156690000	-0.425049275254497	94.501715741082
157937500	-0.438243905057983	93.2880592984832
159185000	-0.448021381192319	92.148589963294
160432500	-0.474235624807976	91.0573231811212
161680000	-0.522339210094347	89.9720773313434
162927500	-0.562825519592345	89.0799178613478
164175000	-0.588507352154775	88.1889403735186
165422500	-0.59548403418442	87.2565826457541
166670000	-0.562071400459331	86.2488836393422
167917500	-0.538977681008076	85.0151054445426
169165000	-0.564323101813676	83.586070484737
170412500	-0.617477389272571	82.2550263195786
171660000	-0.679941670648034	81.1039024271028
172907500	-0.727848832037852	79.9142100611744
174155000	-0.740007107636583	78.6613122530491
175402500	-0.777010419595965	77.2127486580572
176650000	-0.861948784118281	75.6746385859723
177897500	-1.00934541053683	74.263767960253
179145000	-1.19654160171361	73.2247532457092
180392500	-1.40743814583895	72.5159267285756
181640000	-1.58450135093025	72.5427149244622
182887500	-1.62600204095229	73.0959486393333
184135000	-1.57460074235815	73.1746298873078
185382500	-1.52971561292611	72.9105308952107
186630000	-1.46319730271872	72.7107090472559
187877500	-1.36839227711637	72.1144960731357
189125000	-1.26030205583092	71.322317640809
190372500	-1.14526118340593	70.4420990574265
191620000	-1.04397635289686	69.3618219873593
192867500	-0.937748909198895	68.1133296621912
194115000	-0.856048370201052	66.6542461662973
195362500	-0.822677765691477	65.0728305950103
196610000	-0.806995061307829	63.4778648678513
197857500	-0.798373674754636	62.0955989338855
199105000	-0.790273163366457	60.8673352375977
200352500	-0.770045750851463	59.6319341325913
201600000	-0.74258264195666	58.3668134469278
202847500	-0.725569598091137	56.8791841735491
204095000	-0.71869964393974	55.2923670538459
205342500	-0.714890664441277	53.8027269228223
206590000	-0.716016741467733	52.3712874354846
207837500	-0.731638819589966	50.8963919161915
209085000	-0.754392406483095	49.4824382293881
210332500	-0.784311600007686	48.0113002381455
211580000	-0.816179905497918	46.4635704234697
212827500	-0.843209560344653	45.0321285851117
214075000	-0.88254869526791	43.6066669075802
215322500	-0.940395974599339	42.2629975849418
216570000	-0.974790265334563	41.1230165220194
217817500	-1.00542626989398	39.8792747981453
219065000	-1.02866614338195	38.4375244231083
220312500	-1.05720834060292	36.9443017145392
221560000	-1.10484545090249	35.5612549606248
222807500	-1.17927619626627	34.2134944616035
224055000	-1.20863595946433	33.063055769485
225302500	-1.25559359487707	31.8571880800074
226550000	-1.30340562034651	30.4679878858412
227797500	-1.35528483495463	29.0820022533146
229045000	-1.43080767934167	27.771163715631
230292500	-1.51374844639688	26.646974352326
231540000	-1.58367054541536	25.6833011574456
232787500	-1.67002534660599	24.6817103772778
234035000	-1.77308641864103	23.7843974315268
235282500	-1.86509798572326	23.1802164635501
236530000	-1.90979256486649	22.9481413891664
237777500	-1.89196993691226	22.6944077344017
239025000	-1.82590613496465	22.3457329431582
240272500	-1.7418268684202	21.7483928136541
241520000	-1.63941370813429	20.8845004447012
242767500	-1.53684535183871	19.5569031847045
244015000	-1.48360792456086	18.1286377060269
245262500	-1.45182365715897	16.7945683761552
246510000	-1.41641417302371	15.5226107259277
247757500	-1.39538385005555	14.2370518374583
249005000	-1.38597241189543	13.017866622447
250252500	-1.34770227290856	11.6182019276814
251500000	-1.33991558631857	10.0972970210009
252747500	-1.34727276444121	8.63106389028928
253995000	-1.37363399525625	7.22075236891472
255242500	-1.41595550429268	5.91343848643594
256490000	-1.47086960761377	4.70317419413823
257737500	-1.52829871598281	3.64894589036224
258985000	-1.56546951491683	2.76423950739717
260232500	-1.57262829096966	1.92854719733547
261480000	-1.57206685727082	1.04441822843852
262727500	-1.56712038913818	0.308959444628762
263975000	-1.52376079849128	-0.435997339078178
265222500	-1.45667023475072	-1.50896062303351
266470000	-1.40985631945915	-2.73076450520277
267717500	-1.37980155724149	-3.96223455133271
268965000	-1.34040123826791	-5.12526380470899
270212500	-1.29454625548655	-6.35675934851525
271460000	-1.25397904132291	-7.66276296586469
272707500	-1.219959519781	-9.12118603616296
273955000	-1.20543952848299	-10.6933663144078
275202500	-1.21566536628494	-12.3124559652546
276450000	-1.25663269778991	-13.8414152747909
277697500	-1.31322597630948	-15.1668456328052
278945000	-1.37826183527457	-16.3456579376604
280192500	-1.4456591737059	-17.3724205732887
281440000	-1.49567013915923	-18.296379071938
282687500	-1.52606195226467	-19.1935213124257
283935000	-1.55283001207251	-20.1711916183062
285182500	-1.58738692906355	-21.1056298357388
286430000	-1.62149957715974	-21.9413786553535
287677500	-1.65635950131767	-22.7260811504026
288925000	-1.6964161275086	-23.3578615862826
290172500	-1.6988125322509	-23.8478454219247
291420000	-1.66383210728493	-24.4950340833462
292667500	-1.61831692063933	-25.3178252394976
293915000	-1.58305915059177	-26.244644316409
295162500	-1.5569036745273	-27.2106245651725
296410000	-1.54658548040075	-28.2116005540462
297657500	-1.55333190784743	-29.203298163514
298905000	-1.55346405768639	-30.1851408894963
300152500	-1.57155955243215	-31.0391951035939
301400000	-1.57198131361022	-31.7152714648476
302647500	-1.53813546444105	-32.4779038260876
303895000	-1.51849502184203	-33.3144031734168
305142500	-1.50071202550527	-34.0701477890607
306390000	-1.4399604210098	-34.989120534029
307637500	-1.41071232741703	-36.0878566594496
308885000	-1.40148738177514	-37.1756900312392
310132500	-1.3962019186006	-38.1819695056934
311380000	-1.40594140082014	-39.1002950281173
312627500	-1.41850215690856	-39.9117330358654
313875000	-1.4026122321921	-40.6864434399569
315122500	-1.37546320755675	-41.5384726501234
316370000	-1.34073799177836	-42.4730029429269
317617500	-1.31053938995678	-43.4731448953937
318865000	-1.29653862710912	-44.5420254864621
320112500	-1.31440755430614	-45.5843979132356
321360000	-1.32832807552407	-46.5331371616126
322607500	-1.34998055019942	-47.4531425432311
323855000	-1.3652948307811	-48.2594551348401
325102500	-1.36178017309014	-48.983480028492
326350000	-1.34473702359614	-49.7115555892781
327597500	-1.35546231524718	-50.5566430183073
328845000	-1.3550868330117	-51.3775340450141
330092500	-1.36246509528339	-52.1326994179894
331340000	-1.36513193042144	-53.006764301429
332587500	-1.37195977190758	-53.7967902905714
333835000	-1.38266069738142	-54.4308154065682
335082500	-1.39614083781234	-55.0116636194828
336330000	-1.39977975008388	-55.5659679019418
337577500	-1.37895476307077	-56.0372775220636
338825000	-1.32839094129056	-56.6580825370205
340072500	-1.26796359610104	-57.4824011121507
341320000	-1.22800809354307	-58.323839476126
342567500	-1.21138618540489	-59.1906713912071
343815000	-1.19310437824965	-60.0939625339954
345062500	-1.17952952310383	-61.0285056216909
346310000	-1.18452571493336	-61.9542971238118
347557500	-1.18392810311595	-62.9060535555264
348805000	-1.18901319727516	-63.6982296103912
350052500	-1.20893089171744	-64.3650887055528
351300000	-1.19705569827995	-65.0828935472603
352547500	-1.18032248036856	-65.8625967439621
353795000	-1.1759990910053	-66.798481262176
355042500	-1.1899740757518	-67.7852704967603
356290000	-1.20903860912996	-68.5752423617005
357537500	-1.23680142174675	-69.1769759155843
358785000	-1.25146887150268	-69.7894680627457
360032500	-1.24633814368473	-70.3928316927461
361280000	-1.23888936501426	-71.0609343015759
362527500	-1.20925041081627	-71.9040183081726
363775000	-1.19359878591742	-72.8366714062451
365022500	-1.2101124488174	-73.7397775117405
366270000	-1.25415626386139	-74.6107096749918
367517500	-1.3013967010514	-75.3420764508369
368765000	-1.35789994260691	-75.9700360771018
370012500	-1.3880472416325	-76.5103274026694
371260000	-1.40891390773127	-77.0185525846205
372507500	-1.42480055297967	-77.4031022743953
373755000	-1.42953137410685	-77.8555967975755
375002500	-1.41194259597025	-78.3960702958603
376250000	-1.42265618645041	-79.1913008667765
377497500	-1.4765338282742	-79.8641693691222
378745000	-1.51058956701448	-80.204741319311
379992500	-1.51212192975345	-80.4564825607031
381240000	-1.47300903060162	-80.7318192012619
382487500	-1.45420221651087	-81.5511582135759
383735000	-1.47678463324247	-82.147343731423
384982500	-1.49240566902468	-82.837065888545
386230000	-1.52564008362772	-83.484251606726
387477500	-1.57543726999978	-83.7999818164594
388725000	-1.60492119794203	-83.8485220171366
389972500	-1.57386247068116	-83.8645106930147
391220000	-1.51014014637657	-84.0752292878155
392467500	-1.44358846292541	-84.6672967282487
393715000	-1.37564142614643	-85.4472264029717
394962500	-1.32957174810285	-86.3160058559415
396210000	-1.31940443669963	-87.2096930262522
397457500	-1.3278068042458	-88.1163616313594
398705000	-1.36403255867927	-88.8824410602236
399952500	-1.41038388175163	-89.587632504411
401200000	-1.43444016837345	-90.1786139456339
402447500	-1.45185529921356	-90.6870799642241
403695000	-1.4693172036848	-91.1874396271434
404942500	-1.48265121627475	-91.6880644689237
406190000	-1.49350083789464	-92.1745436927958
407437500	-1.50341025643816	-92.7340188544794
408685000	-1.50953839836473	-93.3173510296929
409932500	-1.49960079641555	-93.9007980466153
411180000	-1.50315251946623	-94.5830780741649
412427500	-1.53230720296305	-95.4179201729912
413675000	-1.60447745182405	-96.0644805822136
414922500	-1.68486318293223	-96.4046634736942
416170000	-1.71759091613216	-96.6010753326741
417417500	-1.70321912367983	-96.9817700450111
418665000	-1.70038931716352	-97.4046955642939
419912500	-1.72003465725554	-97.8536881620209
421160000	-1.71258469166069	-98.3126727330537
422407500	-1.72978089501359	-98.9841652267333
423655000	-1.7643008737377	-99.7723047392143
424902500	-1.81698590083961	-100.40927376334
426150000	-1.87357993340496	-100.723939899528
427397500	-1.92493984244487	-100.941696359918
428645000	-1.94632313992192	-101.237107275284
429892500	-1.97334365162011	-101.616138549538
431140000	-2.01378949812444	-101.992979317627
432387500	-2.02311930800746	-102.275232173902
433635000	-2.02596831577681	-102.617701842577
434882500	-2.05515833209854	-102.910140604653
436130000	-2.0523860081163	-103.062113574571
437377500	-2.02115974581337	-103.482319151321
438625000	-2.03153486393878	-104.133515981533
439872500	-2.03262813429206	-104.682017959004
441120000	-2.01246814210665	-105.214461250655
442367500	-2.01895684872948	-106.077986725287
443615000	-2.09077979012641	-107.022209293783
444862500	-2.20897068063922	-107.594355447875
446110000	-2.33391426479634	-107.815242713046
447357500	-2.40284450704066	-107.689709581555
448605000	-2.4024559323032	-107.472212263387
449852500	-2.34968591122693	-107.515708061087
451100000	-2.30027565416028	-107.898813713051
452347500	-2.27356294253717	-108.61318804088
453595000	-2.29261317994703	-109.350720719008
454842500	-2.31768963298294	-110.191226068513
456090000	-2.37244714007434	-110.970608844539
457337500	-2.4773094608614	-111.279349216808
458585000	-2.50916355234298	-111.106992266583
459832500	-2.43947267949736	-111.446204438218
461080000	-2.41689856351961	-112.440801596281
462327500	-2.46893789740271	-113.727754297294
463575000	-2.59572264104886	-114.703761623128
464822500	-2.74578549881101	-115.123447958174
466070000	-2.85254902296341	-115.253214492376
467317500	-2.92934823501454	-115.591159970292
468565000	-3.0336228216836	-115.806920763104
469812500	-3.13521039244667	-115.947277868489
471060000	-3.19514094232866	-115.919985176157
472307500	-3.23125814055936	-115.790932722483
473555000	-3.22047862424441	-115.891714481514
474802500	-3.21105447825089	-116.476914119477
476050000	-3.26737805283094	-117.304754770829
477297500	-3.39361323991868	-118.122590926047
478545000	-3.55331917144595	-118.640674075401
479792500	-3.72612289928452	-118.668944833248
481040000	-3.89227581315672	-118.284598840404
482287500	-4.01337383182177	-117.446785393612
483535000	-4.0312430064349	-116.436072149075
484782500	-3.95882290938786	-115.931670883354
486030000	-3.85799302309103	-115.93893131582
487277500	-3.78867674882731	-116.307746022229
488525000	-3.78164010246629	-116.998009378988
489772500	-3.80047832286025	-117.418144867296
491020000	-3.8107890734654	-117.85590022962
492267500	-3.84332064603673	-118.481324902786
493515000	-3.89632354990984	-119.114089017236
494762500	-3.97175705558918	-119.532222394173
496010000	-4.0446047254053	-119.770440178224
497257500	-4.09093582933889	-120.030936647722
498505000	-4.12773764768384	-120.395733157826
499752500	-4.17819776406565	-120.810533651519
501000000	-4.20331466923412	-121.348671154169
502247500	-4.22649401231492	-122.249829680754
503495000	-4.34442393607019	-123.325959788997
504742500	-4.54543140636345	-124.308207048216
505990000	-4.80107805824213	-124.667327383309
507237500	-5.03256163027307	-124.356792216113
508485000	-5.182208029677	-123.881490071994
509732500	-5.27929498541697	-123.615138979144
510980000	-5.37715237525692	-123.400871107354
512227500	-5.46828262280827	-123.531984649227
513475000	-5.66819522754802	-123.910764152778
514722500	-5.93762913701596	-123.475180188244
515970000	-6.10649274979745	-122.251188999935
517217500	-6.17024439521345	-121.445105432992
518465000	-6.24317949857497	-120.879660233122
519712500	-6.33770568624099	-120.642397125352
520960000	-6.53157409452069	-120.012171476329
522207500	-6.70783259410069	-118.41271364295
523455000	-6.7010155213505	-116.456059055331
524702500	-6.58506946389587	-115.600728265893
525950000	-6.52897470979978	-115.259692446276
527197500	-6.50392926578037	-115.048947931133
528445000	-6.492514104852	-115.019031035629
529692500	-6.58077479144411	-115.015133070022
530940000	-6.70713766745835	-114.359262040854
532187500	-6.73390591387947	-113.393060617932
533435000	-6.73274398043599	-112.729571032254
534682500	-6.77592349331761	-112.184781688695
535930000	-6.79416298007331	-111.106261355579
537177500	-6.67731599327645	-110.18150442428
538425000	-6.55697328560873	-110.167768490941
