!Agilent N9923A: A.07.32
!Date: Friday, 13 November 2020 05:12:00
!Model: N9923A
!Serial: MY52412229
!GPS Latitude: 
!GPS Longitude: 
!GPS TimeStamp: 0001-01-01 00:00:00Z
!GPS Seconds Since Last Read: 0
!CHECKSUM:0041313545
!Correction: S11(ON U)
!S1P File: Measurement: S11:
# Hz S DB R 50
2000000	-0.0341580723116999	-1.38718480438382
3247500	-0.0303539828214724	-2.23044894580506
4495000	-0.0222276963997641	-3.16800720834201
5742500	-0.0130850917495255	-4.10166070276453
6990000	-0.0077389245823725	-5.0077731292592
8237500	-0.0125957251972422	-5.93110566037946
9485000	-0.0211215993241846	-6.88593117518738
10732500	-0.0273369099124166	-7.90450525265992
11980000	-0.0310810810158109	-8.99997255579304
13227500	-0.0402078242086442	-10.2274227577654
14475000	-0.10419170379778	-11.7300517877288
15722500	-0.446926274282552	-12.2934365841709
16970000	-0.294435376089303	-10.9811406921861
18217500	-0.164267205400289	-12.030380590687
19465000	-0.101945444986786	-13.3739538637155
20712500	-0.0729666062259986	-14.8741814555042
21960000	-0.112790226906375	-16.5916332974329
23207500	-0.231662856065029	-18.6901389732505
24455000	-1.04066719658044	-21.9002105446154
25702500	-0.599346776968706	-11.3521643574034
26950000	-0.135074179351387	-15.5446003460357
28197500	-0.0896182917943228	-17.7619424767819
29445000	-0.101894912813686	-19.3387223193626
30692500	-0.124055342774842	-20.7793587617678
31940000	-0.246601272659699	-22.1698454023914
33187500	-0.291619001823298	-22.6581527978247
34435000	-0.314811842748532	-24.0237485302064
35682500	-0.481660727551227	-25.6065997232168
36930000	-0.928915472887137	-24.9481057860767
38177500	-0.643349604637453	-22.1767573140725
39425000	-0.342247909384641	-23.5153860883663
40672500	-0.253809142688844	-25.0226277780355
41920000	-0.217011663900783	-26.3934401773944
43167500	-0.191734985021712	-27.6349127886339
44415000	-0.170856407912947	-28.9570559409567
45662500	-0.18612490756485	-30.4032872639447
46910000	-0.245186732135244	-32.0480808614596
48157500	-0.372917220821602	-33.778236309691
49405000	-0.609588400273251	-35.4648041587601
50652500	-1.09162574505573	-36.6068953616606
51900000	-1.71150404757441	-32.5145882602274
53147500	-1.03746909477124	-28.4577919187449
54395000	-0.572308678232903	-30.0059770642293
55642500	-0.40116628964946	-32.0157303227513
56890000	-0.337836909195943	-33.7578316318299
58137500	-0.352968653846046	-35.8003800757348
59385000	-0.766566418702761	-35.5205256236907
60632500	-0.414951869187022	-35.2184282997076
61880000	-0.34524503560173	-36.4733057892584
63127500	-0.323485638452874	-37.5962924574131
64375000	-0.309899504331444	-38.4375203213406
65622500	-0.276453050602009	-39.3986779335402
66870000	-0.254281374099488	-40.2696420096815
68117500	-0.235889125820577	-41.1373004669688
69365000	-0.240572347461585	-42.1400177144662
70612500	-0.239014994817217	-43.1126912446307
71860000	-0.240587602134363	-44.1214872581126
73107500	-0.247536285580866	-45.1650382156259
74355000	-0.262354615940295	-46.209641642481
75602500	-0.301051083427446	-47.1805836117121
76850000	-0.371872562886402	-48.2415571369408
78097500	-0.508199193061623	-49.2166953585561
79345000	-0.65755256316095	-48.4334016263998
80592500	-0.359942362998277	-48.7563122314164
81840000	-0.296981757624421	-50.6554882252163
83087500	-0.343193544468705	-52.1335641356434
84335000	-0.440403185504219	-53.4701280579995
85582500	-0.561429356772831	-54.6861344741652
86830000	-0.711526243244576	-55.717697780734
88077500	-0.902778549115941	-56.3401343867019
89325000	-1.07526804904302	-56.3502496404527
90572500	-1.18766497421486	-55.8830760140453
91820000	-1.23128726248558	-55.3204719589152
93067500	-1.19766782242856	-55.0920262150724
94315000	-1.14030501714275	-55.3393887944982
95562500	-1.12193593117273	-55.780466218439
96810000	-1.11516853183671	-56.0158202581235
98057500	-1.06739845652268	-56.243521417877
99305000	-1.04136675857429	-56.7863763528372
100552500	-1.04984457633472	-57.5279478202237
101800000	-1.12600795349768	-58.183786715085
103047500	-1.21338930210558	-58.8232910552287
104295000	-1.41319018220795	-58.4789984134141
105542500	-1.40350173284322	-56.3831684273041
106790000	-1.079725872177	-55.5216912096555
108037500	-0.820364078525744	-56.4372574318614
109285000	-0.697911103350755	-57.767501643237
110532500	-0.645257293658293	-58.8143572759009
111780000	-0.598206142031185	-59.7329331154961
113027500	-0.563277671019563	-60.6921049956222
114275000	-0.589474231828424	-61.4377741458443
115522500	-0.616133848925196	-61.8931459130807
116770000	-0.591547905490922	-62.259313822606
118017500	-0.535854878392294	-62.6805623236732
119265000	-0.471446161092855	-63.3418947047011
120512500	-0.407257945989542	-64.0505406990527
121760000	-0.378937771283079	-64.7916671423102
123007500	-0.360007084280869	-65.5491409957506
124255000	-0.335185341281202	-66.3887851504796
125502500	-0.318650063134331	-67.177912438985
126750000	-0.307434044248688	-67.9614922460917
127997500	-0.295323531586992	-68.7140084922359
129245000	-0.299995660590871	-69.3249887163789
130492500	-0.310620581355111	-69.9551895389143
131740000	-0.309709845635669	-70.5701312310272
132987500	-0.281914862253442	-71.1801507356629
134235000	-0.265302110334235	-71.9177547031108
135482500	-0.24152193706858	-72.6797826072034
136730000	-0.238101440150965	-73.4411910733534
137977500	-0.26982544426325	-74.270779016404
139225000	-0.322543696298861	-74.9852139675253
140472500	-0.337999308748249	-75.3362359942954
141720000	-0.325135197704419	-75.8664692046407
142967500	-0.315695572122236	-76.4887017546531
144215000	-0.307031726268124	-77.0747620429067
145462500	-0.324092579270568	-77.7424751493264
146710000	-0.344939528409499	-78.4661255665191
147957500	-0.348047423371846	-78.9941856470802
149205000	-0.349379426719211	-79.746046980228
150452500	-0.371378484171627	-80.4845776582254
151700000	-0.400697888698569	-81.0362823775173
152947500	-0.436011921229199	-81.5844253413568
154195000	-0.474548453616302	-82.2717364949244
155442500	-0.513011584806085	-82.8641673115397
156690000	-0.560901155874953	-83.3124604403772
157937500	-0.594968727282024	-83.64793292613
159185000	-0.602735847334164	-83.9111276704559
160432500	-0.620095642654908	-84.3374108460388
161680000	-0.667292975895571	-84.868076148281
162927500	-0.698772877855629	-85.1887991681377
164175000	-0.707868874924867	-85.4890475154026
165422500	-0.714467411873428	-85.8926099888975
166670000	-0.729214956287257	-86.3260761143381
167917500	-0.774821073853199	-86.6444637999017
169165000	-0.823524474582337	-86.9903503778468
170412500	-0.865696798262704	-87.2875519610158
171660000	-0.904592473787928	-87.3866617851808
172907500	-0.920279386252411	-87.4181089652305
174155000	-0.912580521035478	-87.4304465506619
175402500	-0.921879922557784	-87.4339293094758
176650000	-0.924342959479607	-87.3919021950976
177897500	-0.894739169810547	-87.4167675611821
179145000	-0.83236632084655	-87.4456994749517
180392500	-0.763027116127957	-87.6612813003266
181640000	-0.699164153064514	-87.9694385649037
182887500	-0.641608854426515	-88.2100849454393
184135000	-0.594992267958431	-88.6878787609021
185382500	-0.55726083964492	-89.2494198213561
186630000	-0.523016224621444	-89.7002196688996
187877500	-0.487935422866288	-90.1337716816403
189125000	-0.439666861980537	-90.5525291889259
190372500	-0.391182796528986	-91.0332865600684
191620000	-0.383538869274775	-91.6421982177047
192867500	-0.375242173806958	-92.1853633625644
194115000	-0.344039103086058	-92.6967000499937
195362500	-0.319098244787113	-93.2332871667736
196610000	-0.297701970315269	-93.8058168085863
197857500	-0.279737024645359	-94.3070339541977
199105000	-0.287814693010604	-94.8159646073471
200352500	-0.289489928603974	-95.397970648514
201600000	-0.280931143707394	-95.9255997383706
202847500	-0.272201382461704	-96.4032236963673
204095000	-0.259176719447802	-96.9208844338886
205342500	-0.246271665287815	-97.3454565056148
206590000	-0.251915872043165	-97.8065476591522
207837500	-0.258402189119773	-98.3573722698985
209085000	-0.257108691155988	-98.8639486609894
210332500	-0.256424784026565	-99.2940024674392
211580000	-0.247671100884688	-99.7679815924629
212827500	-0.243357325753213	-100.151230581831
214075000	-0.250186202254145	-100.53318829537
215322500	-0.25920879543516	-101.003922256211
216570000	-0.253509172407066	-101.494721681362
217817500	-0.253190237371669	-101.926364769779
219065000	-0.248021173329447	-102.34881717636
220312500	-0.239794212868822	-102.751581724179
221560000	-0.249470851266342	-103.144770992004
222807500	-0.266421710122193	-103.598773084509
224055000	-0.270196547768648	-104.073394678058
225302500	-0.269180130990974	-104.479583645067
226550000	-0.270252186524806	-104.873242572612
227797500	-0.265091912520008	-105.221920505266
229045000	-0.269627072492378	-105.544454403775
230292500	-0.281115077366776	-105.979465988254
231540000	-0.282386196385469	-106.471058494527
232787500	-0.278368830812241	-106.892620904766
234035000	-0.279320402423343	-107.307119785207
235282500	-0.280347622913779	-107.685483074884
236530000	-0.295254456850078	-108.016187526547
237777500	-0.321225441662893	-108.365336706697
239025000	-0.335043865471733	-108.753905721471
240272500	-0.33268065531986	-109.070970351604
241520000	-0.330951282564976	-109.400038236656
242767500	-0.329842634367615	-109.707452703826
244015000	-0.353274377135272	-109.933746019275
245262500	-0.353548122484886	-110.177991543095
246510000	-0.360111823264729	-110.544163976561
247757500	-0.351301324868164	-110.857839505366
249005000	-0.345155120175146	-111.135169619917
250252500	-0.334115987486096	-111.391780926218
251500000	-0.3220507284518	-111.602714163443
252747500	-0.322963624797234	-111.85614396914
253995000	-0.320709649271228	-112.221683810666
255242500	-0.298633205635195	-112.579548224995
256490000	-0.279045377215201	-112.894041631766
257737500	-0.257127285932032	-113.220083292128
258985000	-0.236017709829516	-113.530158368118
260232500	-0.233220170344273	-113.856469225342
261480000	-0.230599258477356	-114.298876381903
262727500	-0.214230472799542	-114.760588991473
263975000	-0.200055689388869	-115.167922374658
265222500	-0.188415778564155	-115.574670399507
266470000	-0.178233669947309	-115.948413054196
267717500	-0.184228425156962	-116.302167437777
268965000	-0.198386775995729	-116.753767486724
270212500	-0.194908197224317	-117.197552155934
271460000	-0.188112704568073	-117.558749432062
272707500	-0.182425079312502	-117.910206085086
273955000	-0.177615661822938	-118.247007066675
275202500	-0.178091750672052	-118.540273287724
276450000	-0.194274631721391	-118.927555379196
277697500	-0.192736591705857	-119.352381631968
278945000	-0.184008462599968	-119.713906333727
280192500	-0.183799536763599	-120.052004952247
281440000	-0.176348827202991	-120.328412736508
282687500	-0.172951559392681	-120.560262557953
283935000	-0.178363289593817	-120.899802394439
285182500	-0.169957784131702	-121.316685176402
286430000	-0.149113499354443	-121.696913035394
287677500	-0.141052814123301	-122.058896011183
288925000	-0.125760483812951	-122.397228211566
290172500	-0.114521515701555	-122.706298504626
291420000	-0.122383056179114	-123.097459314972
292667500	-0.117449596712323	-123.598482233662
293915000	-0.102302463596353	-124.058968163463
295162500	-0.0980450554032412	-124.455350595131
296410000	-0.0905419427191455	-124.8419937301
297657500	-0.0847045717836859	-125.184434986746
298905000	-0.0952085621930371	-125.563374555963
300152500	-0.101009784187535	-126.053178054111
301400000	-0.089243247650794	-126.477133924267
302647500	-0.0818377987469174	-126.853715601581
303895000	-0.0689152880886476	-127.236861685019
305142500	-0.0576524726843888	-127.591115424459
306390000	-0.0657716573097887	-128.010619134066
307637500	-0.0728980756672656	-128.512641066868
308885000	-0.0641087811089179	-128.996878024289
310132500	-0.0539750150521353	-129.417531134983
311380000	-0.0510401483181581	-129.820490426447
312627500	-0.0495009127752432	-130.201262946217
313875000	-0.0568808342520803	-130.584017836631
315122500	-0.0696970758366132	-131.059431097581
316370000	-0.0660623585366063	-131.588281039327
317617500	-0.0608267028492958	-132.021317712089
318865000	-0.0612246351832017	-132.419566199577
320112500	-0.0615323876709221	-132.816766339831
321360000	-0.0715882809919894	-133.206054054876
322607500	-0.0881894598440873	-133.695498642231
323855000	-0.0941175210923492	-134.215790281457
325102500	-0.0908775478877419	-134.63500698773
326350000	-0.0914191027165252	-135.049418589521
327597500	-0.0929412775837408	-135.420369831373
328845000	-0.101451543150355	-135.794557091548
330092500	-0.121070811588918	-136.239764332803
331340000	-0.119799231925223	-136.759186960284
332587500	-0.115710198947071	-137.214235926362
333835000	-0.113124886621567	-137.627942401425
335082500	-0.109312543524722	-138.010811273371
336330000	-0.115292449825489	-138.385670595556
337577500	-0.131094248189412	-138.84338638916
338825000	-0.133824063351089	-139.393422780471
340072500	-0.123962083290337	-139.896477508687
341320000	-0.121292778446245	-140.365037593661
342567500	-0.122192081089281	-140.799304044022
343815000	-0.129452058476574	-141.189315910059
345062500	-0.145311603025187	-141.622782504567
346310000	-0.149522830213015	-142.210090327958
347557500	-0.140980126625607	-142.753520577027
348805000	-0.140395625530165	-143.25473856259
350052500	-0.134551196749557	-143.708399630955
351300000	-0.13519803748324	-144.178124510502
352547500	-0.148991719273872	-144.700467966134
353795000	-0.158200065000113	-145.365526788677
355042500	-0.156207708408022	-146.021151440902
356290000	-0.159675341775144	-146.58994722633
357537500	-0.165169790558792	-147.107677208068
358785000	-0.169738217784896	-147.594050637998
360032500	-0.187453503834822	-148.168141010718
361280000	-0.204846889259966	-148.85770267831
362527500	-0.207972209114302	-149.606728109475
363775000	-0.218560425431803	-150.264725563714
365022500	-0.234639553260374	-150.875280167733
366270000	-0.258354430112043	-151.407517614797
367517500	-0.296284010393264	-151.930835913263
368765000	-0.328565999508197	-152.583939618829
370012500	-0.340166145754235	-153.265124777996
371260000	-0.346022236590107	-153.891604053096
372507500	-0.350148041965782	-154.519511816876
373755000	-0.364630353280904	-155.13868329281
375002500	-0.401951021931386	-155.790985767655
376250000	-0.450463175885153	-156.564841606673
377497500	-0.490378949241175	-157.356079025479
378745000	-0.521844788601217	-157.976693721855
379992500	-0.538601900197721	-158.50275677894
381240000	-0.54092251892091	-159.043590680641
382487500	-0.565122091016935	-159.737744815618
383735000	-0.610653983789473	-160.496904647053
384982500	-0.637099146202533	-161.355107621876
386230000	-0.658534289440931	-162.252497872675
387477500	-0.694429051455892	-163.047602738477
388725000	-0.739702216285345	-163.694680688397
389972500	-0.788458259389644	-164.287307663633
391220000	-0.827543092021951	-164.946266442236
392467500	-0.843107301544101	-165.834166258634
393715000	-0.84246503848061	-166.887343809826
394962500	-0.872135397513554	-167.981426413909
396210000	-0.927249985504624	-168.993126235482
397457500	-1.00254846143925	-169.94266910118
398705000	-1.10429417197456	-170.961092222382
399952500	-1.20602339941315	-171.989685551333
401200000	-1.2872452143126	-172.946745584908
402447500	-1.36555940745879	-173.773686218923
403695000	-1.43538259976469	-174.493278838243
404942500	-1.50741257614155	-175.320223874661
406190000	-1.61113367076169	-176.29957232402
407437500	-1.71565908075574	-177.239600678474
408685000	-1.78245703042659	-178.20710108163
409932500	-1.84877024129769	-179.201420526276
411180000	-1.92108007384598	179.840737936171
412427500	-2.00975257096596	178.873968178389
413675000	-2.11072925175601	177.874680397096
414922500	-2.19392001734231	176.751634590015
416170000	-2.22959440583927	175.252337632115
417417500	-2.30918664780653	173.408666617821
418665000	-2.4692236495863	171.618568093553
419912500	-2.68322638144877	170.162002588757
421160000	-2.92771824448253	168.70578379939
422407500	-3.19093155863524	167.440225327439
423655000	-3.41997912807898	166.194732414626
424902500	-3.65663073631095	165.01579621878
426150000	-3.9021199281627	164.314767928087
427397500	-4.10394639749607	163.646129944338
428645000	-4.31268799096773	162.748042634908
429892500	-4.51777030603224	161.529255860254
431140000	-4.72838270997561	159.971416453617
432387500	-4.98493107876952	158.212764012457
433635000	-5.31349351001609	156.87433039692
434882500	-5.67367428724862	155.794213948177
436130000	-6.07035988327798	154.911590443221
437377500	-6.47664017448702	154.163866114296
438625000	-6.86040707213195	153.832051468891
439872500	-7.08941289071245	153.566299395602
441120000	-7.29599509065584	152.521734707005
442367500	-7.64967804409015	151.365461842833
443615000	-8.04763021698324	150.687594721508
444862500	-8.37129008881425	149.851013577497
446110000	-8.66549069448588	148.105764354838
447357500	-9.01765799747866	145.762381772172
448605000	-9.47583629964548	143.34823628034
449852500	-10.0799679004164	140.858399964067
451100000	-10.9138469360311	137.929834932398
452347500	-12.1016103877893	135.82279428925
453595000	-13.3511938296208	135.898010198725
454842500	-14.4351495450668	137.255053607109
456090000	-15.4933711331026	139.543152252299
457337500	-16.5260516535239	143.920743549396
458585000	-17.1455461797727	148.514665803768
459832500	-17.8957381405191	148.089516431525
461080000	-19.6200369887075	146.680930859795
462327500	-22.1380518840439	151.765874348625
463575000	-24.2051146862794	170.187785778193
464822500	-23.9999752482375	-167.79585415313
466070000	-22.7111517988284	-154.406198162331
467317500	-21.8949075563521	-149.224723110582
468565000	-22.1270198591951	-144.909533796144
469812500	-22.7319384988491	-136.309030253162
471060000	-22.4490202577374	-121.134527333133
472307500	-20.7705464131063	-109.549109085576
473555000	-18.8941476692131	-102.626600369331
474802500	-16.9888534962535	-100.841799359089
476050000	-15.675473821059	-102.861862682774
477297500	-15.0344445204457	-105.654839264521
478545000	-14.4914322266239	-106.57916340665
479792500	-13.7273771223876	-109.237664592285
481040000	-13.5138287453993	-113.325885730882
482287500	-13.7688005802487	-113.933196827029
483535000	-13.8277496228664	-110.889554950532
484782500	-13.5158895066738	-108.568212676905
486030000	-13.138819993029	-107.443880351693
487277500	-12.6704708284064	-106.816003226615
488525000	-12.2166886790494	-106.878128239131
489772500	-11.818644230514	-106.805807042342
491020000	-11.3866777607635	-106.960451647657
492267500	-11.1082037140121	-108.279638791195
493515000	-10.9763583138986	-109.489947306937
494762500	-10.8465632983373	-110.265142492041
496010000	-10.7441183284514	-110.68420167408
497257500	-10.6270938813253	-110.260778148157
498505000	-10.4547768707287	-108.984893486191
499752500	-10.1151046450772	-108.056120434481
501000000	-9.73747486973406	-108.966275351366
502247500	-9.46933629960594	-110.621979442072
503495000	-9.33102464169426	-112.193704406737
504742500	-9.26688107909399	-113.04096923339
505990000	-9.20948911716089	-113.102416301131
507237500	-9.11754700918161	-113.147219981871
508485000	-9.06988890838011	-113.549560680827
509732500	-8.98520257799754	-113.62127266143
510980000	-8.7910879875923	-113.035931805125
512227500	-8.40470857136097	-112.992871176591
513475000	-8.00498213352291	-114.390044550592
514722500	-7.80898936945938	-117.052370362291
515970000	-7.89191098386776	-120.025956809123
517217500	-8.11917063810525	-121.885595851949
518465000	-8.33090326225454	-122.249549803861
519712500	-8.41645048487426	-121.689858119825
