!Agilent N9923A: A.07.32
!Date: Sunday, 08 November 2020 06:52:41
!Model: N9923A
!Serial: MY52412229
!GPS Latitude: 
!GPS Longitude: 
!GPS TimeStamp: 0001-01-01 00:00:00Z
!GPS Seconds Since Last Read: 0
!CHECKSUM:0123090430
!Correction: S11(ON U)
!S1P File: Measurement: S11:
# Hz S DB R 50
2000000	-0.024109412271158	-1.98191876654282
3247500	-0.0245377861490456	-3.26887120468721
4495000	-0.0230456046946722	-4.58732569076943
5742500	-0.013216774733815	-5.90724024459053
6990000	-0.00790631091063512	-7.2012666685726
8237500	-0.0105133884975526	-8.5117032713894
9485000	-0.0227770292280367	-9.88691931963398
10732500	-0.0346695786775376	-11.3658099860662
11980000	-0.0461114255140577	-13.0041832458225
13227500	-0.0650739539487143	-14.9317858675054
14475000	-0.155253550610214	-17.6354186592424
15722500	-1.24614464519022	-22.2965174282191
16970000	-0.287558272256304	-11.2212400949684
18217500	-0.0867768686402645	-15.832097931147
19465000	-0.09427217439703	-18.4306458710221
20712500	-0.181226791583787	-21.0419875573996
21960000	-0.646757798182033	-22.3074177330156
23207500	-0.617334395742124	-19.2005764729639
24455000	-0.212006874031339	-20.802722835427
25702500	-0.134122513656748	-22.8337672195196
26950000	-0.104623358872232	-24.7345009224497
28197500	-0.113141501351261	-26.5888843852078
29445000	-0.209053408978708	-27.8721417348237
30692500	-0.128105529105869	-28.9501644987992
31940000	-0.124867979267373	-30.941418118887
33187500	-0.170522830328707	-33.2316976823957
34435000	-0.332732530685491	-36.1565457937003
35682500	-0.959741649481579	-39.5204568612708
36930000	-2.1994995479334	-30.9005441362216
38177500	-0.61037720311886	-28.8941680172386
39425000	-0.273799223071729	-32.4758127662173
40672500	-0.1725504255797	-35.0137361886446
41920000	-0.141973725543608	-37.2476288768802
43167500	-0.117587310296737	-39.2130254383806
44415000	-0.094914311684531	-41.2280952133463
45662500	-0.106019342671496	-43.4568469559107
46910000	-0.156628546256304	-46.2495276007124
48157500	-0.314496402281548	-50.2470589053576
49405000	-1.17645175700894	-56.9092149504816
50652500	-3.52668554756592	-44.382613400702
51900000	-1.19057582922484	-38.0545998881483
53147500	-0.621229675315974	-43.18253300211
54395000	-0.555839660714268	-46.4859535039134
55642500	-0.507168199307445	-49.4920236006703
56890000	-0.565365794157665	-54.0907311473832
58137500	-1.47146474458307	-61.9623128999639
59385000	-3.61348422273081	-49.3174169598875
60632500	-2.82556351215028	-43.2973790875819
61880000	-1.26961204582693	-35.7686574900466
63127500	-0.257711835324474	-42.8866560861774
64375000	-0.155152669492376	-47.5496563803871
65622500	-0.164665093724119	-50.4037414367995
66870000	-0.170797688594215	-52.4316864993279
68117500	-0.176014827863789	-54.1115708545227
69365000	-0.199034338025314	-55.8218872290856
70612500	-0.217650430173886	-57.4715473666454
71860000	-0.2554710005452	-59.2522063170036
73107500	-0.323096018936776	-60.8471634763227
74355000	-0.406288849963346	-62.8455388508199
75602500	-0.720908393545443	-64.5276511161229
76850000	-1.22708132704011	-63.0635404830156
78097500	-0.879494191119682	-60.2694956154289
79345000	-0.498670127059575	-61.8139542776852
80592500	-0.375859373084078	-63.9092585356625
81840000	-0.311289584069846	-65.7650087562983
83087500	-0.31019695408051	-67.5777410855906
84335000	-0.369227492101767	-69.3939437444641
85582500	-0.444476148879246	-71.2287789112301
86830000	-0.562161972079768	-73.4566153972993
88077500	-0.893672153710904	-75.9200760664089
89325000	-1.68321768491649	-75.3112193825328
90572500	-1.11408065305982	-70.8753657687104
91820000	-0.907148535119426	-75.0758421992467
93067500	-1.34248917710231	-79.4811625908131
94315000	-2.59092484552045	-80.5827856333748
95562500	-3.50579069933648	-69.5243376842075
96810000	-2.15461002403833	-62.349271305361
98057500	-1.18882446433574	-63.6868761225412
99305000	-0.726230025949701	-66.2428541438307
100552500	-0.49528517785604	-68.6318682153243
101800000	-0.351890033679681	-70.7093622345333
103047500	-0.274324663004194	-72.604020935225
104295000	-0.230232051911698	-74.2203813945001
105542500	-0.190664445082489	-75.4479486004666
106790000	-0.171744491085738	-76.7019273210272
108037500	-0.17178590482383	-77.9862730915475
109285000	-0.169424276566741	-79.1840057475357
110532500	-0.172515062851678	-80.3242942705419
111780000	-0.178802310342608	-81.3751797615541
113027500	-0.181919502798362	-82.2234887276548
114275000	-0.206258142821768	-83.0000911354134
115522500	-0.22071589915009	-83.786666835302
116770000	-0.208946751762161	-84.6224178898714
118017500	-0.192548712835648	-85.5105682749849
119265000	-0.177712205834808	-86.4171571091893
120512500	-0.159204812515661	-87.2197223727156
121760000	-0.161540636034269	-88.0387401514907
123007500	-0.183303961737054	-88.9691506693087
124255000	-0.197394351590176	-89.9707977164797
125502500	-0.233817982678339	-90.9185137136513
126750000	-0.290407996124909	-91.7217080813972
127997500	-0.380239345360922	-92.0292923465258
129245000	-0.370430646613634	-91.4472271265964
130492500	-0.236839778409623	-91.7765532865581
131740000	-0.145161827901535	-92.8520750010932
132987500	-0.0967422833556543	-93.9369965782322
134235000	-0.0718180332755156	-95.0056892744665
135482500	-0.0494162066819774	-95.9608356889947
136730000	-0.0584918083741339	-96.7859676342211
137977500	-0.0950995139123699	-97.5834498015455
139225000	-0.102699948316162	-98.3185105739792
140472500	-0.0886259275494158	-99.1235182665939
141720000	-0.0817155066677297	-99.9784237318214
142967500	-0.0728597619044191	-100.772824352361
144215000	-0.0742486057645354	-101.474587425445
145462500	-0.0995438063746056	-102.259144410259
146710000	-0.11791574661819	-103.124855427071
147957500	-0.128414971139348	-103.958783400583
149205000	-0.142348845623174	-104.82248562041
150452500	-0.157136075357199	-105.605616644947
151700000	-0.189973057013094	-106.267347680867
152947500	-0.246787519286996	-106.926951005744
154195000	-0.305049606509518	-107.653694007534
155442500	-0.364280816968904	-108.196724133019
156690000	-0.400434692892269	-108.500925124233
157937500	-0.385984609789581	-108.744215017748
159185000	-0.355374538822699	-109.113390680592
160432500	-0.357647553967668	-109.708377425042
161680000	-0.384628241217893	-110.533173916088
162927500	-0.427320857641479	-111.182016635245
164175000	-0.450263298215174	-111.695354271769
165422500	-0.477453973802436	-112.123977702782
166670000	-0.490593300701826	-112.229076116915
167917500	-0.492315514635265	-112.421479329564
169165000	-0.504679874149959	-112.826679043637
170412500	-0.508846170437069	-113.196060667854
171660000	-0.482018279422809	-113.345584478458
172907500	-0.397024529791544	-113.650291316129
174155000	-0.308866759912253	-114.192636332129
175402500	-0.269009750990378	-114.869448823274
176650000	-0.337997583380964	-115.770259126066
177897500	-0.275987710631711	-116.239088249844
179145000	-0.255122420987197	-116.979336246845
180392500	-0.235586382425288	-117.650397850387
181640000	-0.210273529180335	-118.24420938748
182887500	-0.213554710409125	-118.797002792433
184135000	-0.242180170662739	-119.350966810003
185382500	-0.231240473874239	-119.83886629673
186630000	-0.18993540870121	-120.457467788901
187877500	-0.159861063898178	-121.20658140866
189125000	-0.136346620326738	-121.85870936729
190372500	-0.133949002206612	-122.387662865323
191620000	-0.150508869350473	-123.017403868215
192867500	-0.156602657638385	-123.728680298076
194115000	-0.15135050338386	-124.395588040478
195362500	-0.14258796561202	-125.019327030427
196610000	-0.122152382435722	-125.600107365903
197857500	-0.115143289334228	-126.10498639506
199105000	-0.132853797784299	-126.697766948236
200352500	-0.14201756796671	-127.378268057218
201600000	-0.143215753929098	-128.05424238836
202847500	-0.136005360902869	-128.694972809766
204095000	-0.121764286602934	-129.265197810797
205342500	-0.120321406285145	-129.770127298047
206590000	-0.139817539140654	-130.309618010756
207837500	-0.156361168405156	-130.982851659497
209085000	-0.158397544235032	-131.703560927581
210332500	-0.160390299397984	-132.389326258422
211580000	-0.160061785207769	-133.006244511366
212827500	-0.173325437112693	-133.521912684649
214075000	-0.213598381921039	-133.995913867029
215322500	-0.256814923587934	-134.518465577569
216570000	-0.2793295573926	-134.979184552454
217817500	-0.275052729903532	-135.319355633854
219065000	-0.229847926049323	-135.714982711983
220312500	-0.182935282949591	-136.272721419754
221560000	-0.186693480270001	-136.940629275047
222807500	-0.216705978944826	-137.733051784282
224055000	-0.248081930395814	-138.504756165255
225302500	-0.279155582167728	-139.216524090528
226550000	-0.319620025402493	-139.795079926379
227797500	-0.360872691798265	-140.150790625108
229045000	-0.424628787052991	-140.342505823947
230292500	-0.477356946075646	-140.450168228065
231540000	-0.48269809088863	-140.532520623414
232787500	-0.441611562743609	-140.695749007934
234035000	-0.380726676166873	-141.021908857913
235282500	-0.325109176433378	-141.391459047639
236530000	-0.296157588165511	-141.799229675991
237777500	-0.286129087818699	-142.322602100754
239025000	-0.269797528938079	-142.947261025536
240272500	-0.240501570692535	-143.572354508138
241520000	-0.209206314218432	-144.186378393834
242767500	-0.175807640559359	-144.75210283996
244015000	-0.165098298795798	-145.257112064311
245262500	-0.173013364883098	-145.850046206468
246510000	-0.171745301606559	-146.513603328388
247757500	-0.153777081085415	-147.179423848339
249005000	-0.135429968468301	-147.837954332304
250252500	-0.112631248000908	-148.431437111867
251500000	-0.110829847114364	-148.967342405079
252747500	-0.131558035551569	-149.545231371445
253995000	-0.144734381732274	-150.206290823787
255242500	-0.141129988020151	-150.869193062134
256490000	-0.128449413665221	-151.507566673098
257737500	-0.106864890770866	-152.085813181907
258985000	-0.101034372014229	-152.618813356244
260232500	-0.116626111390652	-153.199775366703
261480000	-0.132019467067272	-153.867323177224
262727500	-0.132515023704562	-154.560006823627
263975000	-0.124124124626021	-155.215960182996
265222500	-0.110271364070397	-155.840001679975
266470000	-0.106930805421483	-156.39874344541
267717500	-0.122598552977356	-156.987882858601
268965000	-0.142175106776862	-157.67217080722
270212500	-0.14752569905256	-158.442038914132
271460000	-0.15367200719268	-159.212350832314
272707500	-0.17138051919886	-159.853725282524
273955000	-0.182798011516104	-160.291751167475
275202500	-0.19821387514223	-160.733121663776
276450000	-0.214231714835165	-161.319308105649
277697500	-0.21433572939515	-161.982248983466
278945000	-0.206063027900863	-162.649197638889
280192500	-0.196808518979133	-163.267137985519
281440000	-0.186453992477454	-163.820300885887
282687500	-0.192292922716053	-164.374223113423
283935000	-0.20576351535953	-165.055079422386
285182500	-0.207694828167474	-165.802066937861
286430000	-0.198466809485791	-166.568317431131
287677500	-0.187109264407147	-167.301758766082
288925000	-0.179852819882257	-167.948233868262
290172500	-0.192455634472912	-168.587615033612
291420000	-0.213353216694484	-169.29979472188
292667500	-0.222317858559456	-170.10734519559
293915000	-0.220484576611743	-170.895426285994
295162500	-0.214189155257437	-171.654632176127
296410000	-0.210170087563489	-172.354864027082
297657500	-0.22395075498671	-173.041946795739
298905000	-0.254198342192734	-173.793974716107
300152500	-0.277757676894381	-174.598335217224
301400000	-0.27781220936271	-175.397698998882
302647500	-0.270320949978027	-176.197405128905
303895000	-0.265666051873709	-176.954268386369
305142500	-0.278136687444483	-177.675589073412
306390000	-0.304272991277655	-178.473391774547
307637500	-0.330751534977236	-179.352241919583
308885000	-0.346259276970195	179.765652584273
310132500	-0.344930398439274	179.013431295344
311380000	-0.332514617705143	178.217247856137
312627500	-0.341761996056432	177.413177679158
313875000	-0.373279217794633	176.56780939818
315122500	-0.405162541944571	175.638281473582
316370000	-0.41706707386511	174.681046702713
317617500	-0.418856994545284	173.761288644909
318865000	-0.42435344009049	172.85880407475
320112500	-0.448243298062236	172.033886274583
321360000	-0.482487832219714	171.202745740591
322607500	-0.5127894681643	170.274373370135
323855000	-0.529997520909819	169.279013973895
325102500	-0.535064824810872	168.30489407316
326350000	-0.541600674770937	167.36606971426
327597500	-0.561089332977944	166.468393100261
328845000	-0.591928131488573	165.554246183117
330092500	-0.622594116785111	164.560632794246
331340000	-0.636195917057481	163.464270078518
332587500	-0.646491236660258	162.378633014899
333835000	-0.65522229628037	161.35497352135
335082500	-0.679426644252022	160.381783784448
336330000	-0.712778375952541	159.392635517722
337577500	-0.744010128763093	158.318976741465
338825000	-0.757718744498147	157.148370551729
340072500	-0.757660722514656	155.906334963825
341320000	-0.766695733441128	154.693187605317
342567500	-0.79465465949066	153.557251604728
343815000	-0.831982333226631	152.399248136466
345062500	-0.872921285961866	151.115892019208
346310000	-0.908603126555468	149.726707522849
347557500	-0.943118736382758	148.330143337785
348805000	-0.977608527366847	147.069416231809
350052500	-1.01696657090048	145.910851251346
351300000	-1.05797351019454	144.685716440668
352547500	-1.10508390469931	143.291058161672
353795000	-1.15293073391444	141.775278624328
355042500	-1.20874245322278	140.241988548788
356290000	-1.26302247159327	138.882821738345
357537500	-1.32544022492176	137.680267478779
358785000	-1.38362263816695	136.474428574581
360032500	-1.42817014976863	135.198501894739
361280000	-1.44610613288729	133.762102467685
362527500	-1.44779801627656	132.127552437445
363775000	-1.45352929563709	130.299283648877
365022500	-1.51379848078378	128.420573779786
366270000	-1.61622053726774	126.607301309002
367517500	-1.74243681217168	124.856932578884
368765000	-1.8601300163074	123.279705300081
370012500	-1.94813479956873	121.828379491112
371260000	-1.99223872122802	120.379004796047
372507500	-2.03982229980451	118.825735278151
373755000	-2.10675897942067	117.051113413139
375002500	-2.19022360730056	115.100754300754
376250000	-2.30065395540486	113.02640962003
377497500	-2.4534741126004	111.20355302059
378745000	-2.56491879922855	109.910641686215
379992500	-2.61150393642452	108.693194175113
381240000	-2.61524709406741	107.025880559023
382487500	-2.68823690730286	104.58296950685
383735000	-2.81958819968051	102.49206414714
384982500	-2.93237231067766	100.553719282379
386230000	-3.03725147543336	98.7698519645844
387477500	-3.14281706472735	97.2436939734836
388725000	-3.23641016552508	95.7832444097558
389972500	-3.2578572054856	94.2166091592096
391220000	-3.22468851648254	92.1209599051827
392467500	-3.21448339294138	89.54625363399
393715000	-3.23726306472987	86.9500064031055
394962500	-3.29353744429133	84.2938063379854
396210000	-3.41333817974166	81.4495314875127
397457500	-3.55177291507116	78.70839459999
398705000	-3.68634301585944	76.0996384153117
399952500	-3.79093134058041	73.5436765628155
401200000	-3.89683312826435	71.0687716621163
402447500	-4.01007138979688	68.5759787514981
403695000	-4.17044924198445	65.8734366887017
404942500	-4.32723158830801	63.2923865561786
406190000	-4.45429531472454	60.7592835526089
407437500	-4.54489541524591	58.255528939814
408685000	-4.62318676401052	55.845172827317
409932500	-4.71265909722487	53.2823111291531
411180000	-4.83808026148486	50.4227646455007
412427500	-5.00525952776181	47.5557204039738
413675000	-5.07422910728836	45.0242053949671
414922500	-5.15651133304805	41.7290016882902
416170000	-5.32819785997991	39.0320232971423
417417500	-5.49948676960245	36.6328155774563
418665000	-5.68488005858491	34.2220619077549
419912500	-5.83927114280336	32.0139676040664
421160000	-5.87269093912117	29.8078678846912
422407500	-5.85991606629499	27.1164148153643
423655000	-5.91240749908603	24.4133809509425
424902500	-6.02422798015755	21.8104230018047
426150000	-6.15985151417581	19.3500485591318
427397500	-6.25566379641894	16.7459300208745
428645000	-6.33215095182017	14.1234204355008
429892500	-6.38973286936344	11.9003580675
431140000	-6.41771181026956	10.248928487809
432387500	-6.37374940147728	8.29679299997325
433635000	-6.36348439575905	5.63761642805192
434882500	-6.42085931282518	2.85861988338904
436130000	-6.39568204093437	0.569027711825561
437377500	-6.29195479024104	-2.24754100481017
438625000	-6.32295427192097	-4.94578673193593
439872500	-6.35946607556404	-6.95689540264388
441120000	-6.28900862644225	-9.3071357023761
442367500	-6.24315105987306	-12.8118645714503
443615000	-6.32879974926497	-16.4870876605793
444862500	-6.52402084971466	-19.1854146283177
446110000	-6.71254950448769	-20.2522388400123
447357500	-6.73190694173162	-20.829767784275
448605000	-6.62894566763391	-22.0221737134767
449852500	-6.46348014577407	-24.2066950833249
451100000	-6.29822695930165	-27.0496670125106
452347500	-6.16864271286017	-29.9317204774863
453595000	-6.11269817996412	-32.9294064083088
454842500	-6.17441506628418	-36.0973993408806
456090000	-6.3648960525653	-39.2041106595285
457337500	-6.65907526251104	-41.3759052965311
458585000	-6.76574341597806	-42.1014863245076
459832500	-6.59791210082396	-43.358173807174
461080000	-6.49335629113965	-45.8679078615255
462327500	-6.58342629342715	-48.8293737578064
463575000	-6.81388449652658	-51.5127763854333
464822500	-7.10273099249367	-53.6992946452493
466070000	-7.35603840126164	-55.2331810343363
467317500	-7.59250102165531	-56.1506569234858
468565000	-7.8540361823597	-56.1445052608915
469812500	-8.0911010713406	-55.1649571770898
471060000	-8.1489901678947	-53.6247617533128
472307500	-7.94812268507013	-52.8177927594455
473555000	-7.67725948113383	-53.5767587232857
474802500	-7.43044738897418	-54.7866699675489
476050000	-7.27689347832487	-56.4000576332944
477297500	-7.30600063384733	-57.7062350795318
478545000	-7.32626114757652	-58.6142957180339
479792500	-7.32936780710967	-59.8203594414997
481040000	-7.3511842838511	-60.8332754163781
482287500	-7.32629149936009	-61.4258850438423
483535000	-7.25704206030379	-61.2977707275429
484782500	-7.12714249568529	-61.2940347548311
486030000	-6.93849884076999	-61.8306389841195
487277500	-6.75781079820116	-63.4565540758676
488525000	-6.65692726488547	-65.3895871587769
489772500	-6.54828202331355	-66.8906463302812
491020000	-6.42653010864694	-68.5307114967201
492267500	-6.44348103700428	-70.4103050241635
493515000	-6.55992937099899	-72.0990854117366
494762500	-6.7180752323295	-73.2916433976301
496010000	-6.78521585489916	-73.8853076512498
497257500	-6.73652068872726	-74.3906526062711
498505000	-6.64701375727406	-74.9644019031508
499752500	-6.59488811401071	-75.5939710243788
501000000	-6.53140363912935	-76.5445641021454
502247500	-6.47754096982345	-78.1845777086682
503495000	-6.46724939177111	-80.0820128865518
504742500	-6.49671288515073	-82.0670124824764
505990000	-6.58941506222636	-83.5612455373183
507237500	-6.77214389043192	-84.4152775902022
508485000	-6.9225260873047	-84.7598257057279
509732500	-6.99941369107665	-85.4363661292255
510980000	-7.04047715750144	-86.2528545589039
512227500	-6.99874071186797	-87.2616580216904
513475000	-6.99420434988543	-88.9320182163654
514722500	-7.21110697758045	-90.4359311574637
515970000	-7.53695487634332	-90.9694034457124
517217500	-7.77944145056523	-90.9703158134382
518465000	-7.90618633920829	-91.0441717275255
519712500	-7.96458232823328	-91.5570025581054
520960000	-8.12932131031094	-92.1653615140141
522207500	-8.42884838101778	-91.6065005227761
523455000	-8.6713659806063	-89.527949305983
