!Agilent N9923A: A.07.32
!Date: Friday, 21 February 2020 06:14:22
!Model: N9923A
!Serial: MY52412229
!GPS Latitude: 
!GPS Longitude: 
!GPS TimeStamp: 0001-01-01 00:00:00Z
!GPS Seconds Since Last Read: 0
!CHECKSUM:0910171986
!Correction: S11(ON U)
!S1P File: Measurement: S11:
# Hz S DB R 50
2000000	-0.0619538808212952	179.363968486011
6990000	-0.0690902254057411	177.757514015807
11980000	-0.0765720866589407	176.228668074327
16970000	-0.0825542407170619	174.734188117405
21960000	-0.0928436960425751	173.263678627391
26950000	-0.107648299385725	171.813431853482
31940000	-0.123070581553592	170.341522398096
36930000	-0.140059795038769	168.845216689397
41920000	-0.158234228559304	167.337085458371
46910000	-0.168313492136909	165.833080437056
51900000	-0.172388461466656	164.279649117858
56890000	-0.178065504896486	162.719352176294
61880000	-0.189274341591516	161.142403164775
66870000	-0.208347028002709	159.606976088451
71860000	-0.219548054819558	157.983834371598
76850000	-0.24357672690323	156.346446209677
81840000	-0.271653829470334	154.713340589099
86830000	-0.327332438706352	153.175285989081
91820000	-0.299998116244626	151.789408060204
96810000	-0.28970395994546	150.015819427495
101800000	-0.295229487701512	148.229145539591
106790000	-0.311226380000592	146.412942937481
111780000	-0.335191097155723	144.531722708424
116770000	-0.363936569431563	142.629448805757
121760000	-0.379960723016452	140.637221701519
126750000	-0.405767585755401	138.429650241869
131740000	-0.465752329963692	135.978130445591
136730000	-0.639711555194436	133.66386804496
141720000	-0.736691628182119	133.077371426075
146710000	-0.64296851481193	131.348122389498
151700000	-0.600871528600537	128.943318217058
156690000	-0.629826216662353	126.459123174401
161680000	-0.673919281920033	124.253693502403
166670000	-0.654287931772911	121.930692102341
171660000	-0.654102684919413	119.200675759281
176650000	-0.696277346504832	116.284503040144
181640000	-0.731838502367221	113.32287660459
186630000	-0.784605780350228	110.036708994471
191620000	-0.894613910971453	106.510008820248
196610000	-1.11473238997315	103.026675571265
201600000	-1.38036438130964	99.9542380471553
206590000	-1.7654917921649	97.9406620100478
211580000	-1.81392834269035	98.1845902935191
216570000	-1.4912103927808	96.0289987712635
221560000	-1.27191158395967	91.953410255386
226550000	-1.22442052183195	87.3887883100457
231540000	-1.28819225332407	83.0865236017386
236530000	-1.30668802698165	78.7160033988237
241520000	-1.34922628408631	74.083945315877
246510000	-1.41770767295304	68.9846935812967
251500000	-1.49310940123245	63.8885255192374
256490000	-1.58081065604001	58.4939677641975
261480000	-1.71324058745653	52.6035276586891
266470000	-1.91748037680466	46.4280864650944
271460000	-2.27854114388996	40.8358266931824
276450000	-2.62997606038489	35.7103632024554
281440000	-3.13777212778482	31.722795962564
286430000	-3.16782908036509	29.9489346052234
291420000	-2.76570144501124	25.6002215097628
296410000	-2.51621221217618	18.3200613102057
301400000	-2.42105132317542	11.8023859869968
306390000	-2.28181545866719	3.43504501569736
311380000	-2.35972879880647	-5.20475385818636
316370000	-2.53077634057743	-13.7451141846747
321360000	-2.76634878069506	-22.2654159830648
326350000	-3.7038833919039	-22.6853647054607
331340000	-2.73535826993877	-32.6491567652065
336330000	-2.59107682372812	-42.8592786524932
341320000	-2.57298982523308	-51.0642613245246
346310000	-2.58326829666691	-59.7890530491175
351300000	-2.48158791811431	-67.9416097430064
356290000	-2.25138790187336	-76.9524076214314
361280000	-2.21432944293196	-88.2253465441979
366270000	-2.26221065219827	-99.4226985204989
371260000	-2.45977734435211	-110.237125257803
376250000	-2.82761075124189	-119.206854005328
381240000	-2.64200881581788	-130.031471261585
386230000	-2.90868098486431	-141.42895413727
391220000	-3.01418487347018	-152.08550117989
396210000	-3.36149003761948	-165.742160689082
401200000	-3.90073843920828	-176.22858168262
406190000	-4.08952220899497	172.0718195852
411180000	-4.58919426881698	161.337279535556
416170000	-4.70667058148085	149.196240429532
421160000	-4.94240987249418	136.977486076846
426150000	-5.16006450310491	121.741907446966
431140000	-5.94935224741812	109.879225943505
436130000	-6.00478068784517	98.3302955795398
441120000	-6.36214131916966	83.4689740391583
446110000	-6.96567353111289	72.3494590292491
451100000	-7.19662097454144	66.4635107853597
456090000	-6.5352045340193	57.2261400011309
461080000	-6.25465100830849	44.2036295707545
466070000	-6.25632878779675	32.0823563392457
471060000	-6.28443157905612	21.1810168421452
476050000	-6.74730044653928	12.6124481236228
481040000	-7.10523101952947	5.57105724619551
486030000	-7.16301650716929	6.28455755100014
491020000	-6.11494337615774	0.625866058908073
496010000	-5.89916083242255	-7.29853110354848
501000000	-5.68220168262141	-12.3715314149486
505990000	-5.35003126653796	-17.8943213574553
510980000	-5.19012021754042	-24.1633724541136
515970000	-5.01230331510663	-29.7108896198079
520960000	-4.82644012007197	-35.7818863550222
525950000	-4.91200949686636	-40.0240558842781
530940000	-4.84427752779148	-45.2636933448268
535930000	-4.90078960520624	-49.5979236250101
540920000	-5.10719792907259	-51.7430930914391
545910000	-4.80761876345424	-54.2220278783874
550900000	-4.9574455539326	-56.9724825170996
555890000	-4.80022885119202	-58.320472118168
560880000	-4.44293323197523	-60.5385136823589
565870000	-4.14340834761572	-65.0512831893326
570860000	-4.35295257257093	-69.7621544147816
575850000	-4.31699174234664	-71.6549183090227
580840000	-4.50499184333076	-75.0255520026876
585830000	-4.61692544472945	-77.6571542193149
590820000	-4.37135392039701	-79.4615781005379
595810000	-4.426751632195	-84.7173079548043
600800000	-4.79086463039192	-86.7843446383259
605790000	-4.96560513825224	-87.912905752364
610780000	-4.88111982820091	-89.7215510942808
615770000	-4.94272849722867	-92.9113006276086
620760000	-5.11501958966825	-96.4056818372558
625750000	-5.67160853443611	-98.6744145789991
630740000	-5.67949363748081	-99.8498019851296
635730000	-6.64002385750165	-104.171924397674
640720000	-6.85889859227972	-101.599959620906
645710000	-7.17858657124973	-103.397620744096
650700000	-7.6978071333166	-103.263093573037
655690000	-8.04900993045	-105.022521140536
660680000	-9.07133376743054	-102.595522277339
665670000	-9.18463141893003	-102.513647824954
670660000	-10.3440957340662	-98.9417437253378
675650000	-10.2109248508037	-96.0680133096188
680640000	-10.8092559894478	-94.9197497129013
685630000	-11.8583552512219	-90.4090027099723
690620000	-12.2000034904804	-74.5540106485593
695610000	-10.4984752396585	-71.1202105915249
700600000	-11.6704112369943	-65.2795411873796
705590000	-9.78556586096784	-51.9061558104452
710580000	-8.39156493384698	-52.7414854051183
715570000	-7.66385889330678	-51.0993782211237
720560000	-6.61542701557689	-53.6477685303508
725550000	-5.884455855564	-54.9678304271883
730540000	-5.44019874862679	-57.4311176160552
735530000	-4.92868935199885	-57.7721132360597
740520000	-4.36768890179116	-59.5888182876745
745510000	-3.91250425022324	-61.4724397898734
750500000	-3.50813254770122	-61.2385862024345
755490000	-2.97118161128159	-64.4423023315523
760480000	-2.69209728758309	-66.4328364615719
765470000	-2.4663253044722	-68.2791629706681
770460000	-2.21657277454802	-70.5363606879706
775450000	-1.9910254121084	-72.5202775448912
780440000	-1.80847582914544	-74.3645648700533
785430000	-1.55684429722423	-76.5826681641196
790420000	-1.41005128942611	-78.8869940124491
795410000	-1.3632484787367	-81.3636635197878
800400000	-1.34799102930305	-82.464906052652
805390000	-1.2749031617079	-84.3410745539268
810380000	-1.28722600121861	-85.9922797408376
815370000	-1.35114914229733	-86.8879485538695
820360000	-1.27327902019742	-87.2459130691812
825350000	-1.17750998865597	-88.2393125969561
830340000	-1.0155090467832	-89.4106231503747
835330000	-0.959027281069401	-90.7258480908585
840320000	-0.844479048569689	-91.7723325261379
845310000	-0.750099781404996	-93.3892968745723
850300000	-0.726475851892941	-94.8077996654562
855290000	-0.680110229828981	-95.9504653310025
860280000	-0.64111403891808	-97.1683919128707
865270000	-0.663302393424454	-98.3442390622512
870260000	-0.653735641818698	-99.2730058396108
875250000	-0.644439757541105	-99.8892441433281
880240000	-0.597034409537456	-100.570833845803
885230000	-0.523639189433256	-101.318745667271
890220000	-0.462538718955241	-102.268271362217
895210000	-0.399366081144472	-103.497635621833
900200000	-0.378318779152045	-104.723366831053
905190000	-0.361100798612521	-105.792947507798
910180000	-0.338328929502448	-107.068674289715
915170000	-0.348676998253976	-108.641810392221
920160000	-0.39862402074396	-110.026448928981
925150000	-0.421301010525828	-111.239334729843
930140000	-0.436858553058596	-112.655415413056
935130000	-0.454430797147166	-114.080799171306
940120000	-0.485726943101479	-115.348523214033
945110000	-0.492251150608716	-116.384102326772
950100000	-0.507742346373008	-117.42423801065
955090000	-0.552829271624152	-118.538768461653
960080000	-0.634808805484618	-119.609201069767
965070000	-0.74024776124193	-120.687002361497
970060000	-0.870131921316579	-121.655756323265
975050000	-0.998213197985558	-122.838758185185
980040000	-1.11770903929384	-124.39533361133
985030000	-1.27122693418083	-126.257389253418
990020000	-1.49438163062199	-127.730730764153
995010000	-1.69857064671732	-128.964184211992
1000000000	-1.92411095877652	-130.458454144945
