!Agilent N9923A: A.07.32
!Date: Friday, 21 February 2020 06:23:23
!Model: N9923A
!Serial: MY52412229
!GPS Latitude: 
!GPS Longitude: 
!GPS TimeStamp: 0001-01-01 00:00:00Z
!GPS Seconds Since Last Read: 0
!CHECKSUM:1777628573
!Correction: S11(ON U)S21()S12()S22()
!S2P File: Measurements:S11,S21,S12,S22:
# Hz S DB R 50
2000000	-0.0317920169804135	179.310378169336	0	0	0	0	0	0	
6990000	-0.0458602092360035	177.7845083709	0	0	0	0	0	0	
11980000	-0.0650387337724892	176.282451588294	0	0	0	0	0	0	
16970000	-0.0817648081339363	174.781537716551	0	0	0	0	0	0	
21960000	-0.0944012083764273	173.292651385378	0	0	0	0	0	0	
26950000	-0.102779158137572	171.832341251176	0	0	0	0	0	0	
31940000	-0.105684369830599	170.359023978417	0	0	0	0	0	0	
36930000	-0.110263565858953	168.896324863576	0	0	0	0	0	0	
41920000	-0.122382097622446	167.439971127217	0	0	0	0	0	0	
46910000	-0.134877254739175	165.987204997489	0	0	0	0	0	0	
51900000	-0.151115811286241	164.463034596086	0	0	0	0	0	0	
56890000	-0.169368351848673	162.906214963648	0	0	0	0	0	0	
61880000	-0.189892520796679	161.301909676882	0	0	0	0	0	0	
66870000	-0.207744036388194	159.7599353429	0	0	0	0	0	0	
71860000	-0.210696378133203	158.11711790863	0	0	0	0	0	0	
76850000	-0.221922135317014	156.52198412327	0	0	0	0	0	0	
81840000	-0.237892262969978	154.91235840899	0	0	0	0	0	0	
86830000	-0.29222785795388	153.48450283337	0	0	0	0	0	0	
91820000	-0.273157299138611	152.105232581515	0	0	0	0	0	0	
96810000	-0.274380005555088	150.396603423946	0	0	0	0	0	0	
101800000	-0.288405030523196	148.589436964052	0	0	0	0	0	0	
106790000	-0.307157035169551	146.742061478833	0	0	0	0	0	0	
111780000	-0.323193681893738	144.825167750357	0	0	0	0	0	0	
116770000	-0.332919917846841	142.857027289108	0	0	0	0	0	0	
121760000	-0.348485761973935	140.815469095687	0	0	0	0	0	0	
126750000	-0.386843213692565	138.710070385347	0	0	0	0	0	0	
131740000	-0.473634790766081	136.516552710152	0	0	0	0	0	0	
136730000	-0.593889747142954	134.779584885991	0	0	0	0	0	0	
141720000	-0.637476505775201	133.231321194704	0	0	0	0	0	0	
146710000	-0.644457313497807	131.437696276079	0	0	0	0	0	0	
151700000	-0.616310084538099	129.185778671041	0	0	0	0	0	0	
156690000	-0.650155048296388	126.743513377905	0	0	0	0	0	0	
161680000	-0.669849006348732	124.709257137328	0	0	0	0	0	0	
166670000	-0.627729809539121	122.428939325078	0	0	0	0	0	0	
171660000	-0.628244713376116	119.837969448379	0	0	0	0	0	0	
176650000	-0.668497719867139	117.021181977751	0	0	0	0	0	0	
181640000	-0.715858329063501	114.11988791457	0	0	0	0	0	0	
186630000	-0.778981012324702	110.824394321293	0	0	0	0	0	0	
191620000	-0.89013446263167	107.291477693456	0	0	0	0	0	0	
196610000	-1.09690799397629	103.850959902822	0	0	0	0	0	0	
201600000	-1.3119798734533	100.79428771691	0	0	0	0	0	0	
206590000	-1.59662205022175	98.4423351765982	0	0	0	0	0	0	
211580000	-1.76635483179986	97.9548943450767	0	0	0	0	0	0	
216570000	-1.51081751673947	96.4690117082929	0	0	0	0	0	0	
221560000	-1.31079497563937	92.6841999309758	0	0	0	0	0	0	
226550000	-1.24625448162553	88.3314122272843	0	0	0	0	0	0	
231540000	-1.28611455256865	83.921673161724	0	0	0	0	0	0	
236530000	-1.28878474214681	79.3257135121472	0	0	0	0	0	0	
241520000	-1.33021770353864	74.5358024675604	0	0	0	0	0	0	
246510000	-1.39120896058772	69.4947551997809	0	0	0	0	0	0	
251500000	-1.45331136010578	64.4008819278625	0	0	0	0	0	0	
256490000	-1.54757531062681	58.9032155206207	0	0	0	0	0	0	
261480000	-1.7337355244999	52.9415175540611	0	0	0	0	0	0	
266470000	-1.97867025068628	47.0551097585862	0	0	0	0	0	0	
271460000	-2.29952158961198	41.318531734375	0	0	0	0	0	0	
276450000	-2.71660594654154	36.334284806621	0	0	0	0	0	0	
281440000	-3.01448698788586	32.2849239385876	0	0	0	0	0	0	
286430000	-3.03465945567714	29.1824934197493	0	0	0	0	0	0	
291420000	-2.70992692592634	24.7196135708971	0	0	0	0	0	0	
296410000	-2.47977350718172	17.3582115884949	0	0	0	0	0	0	
301400000	-2.39544674616677	10.2175497867414	0	0	0	0	0	0	
306390000	-2.33894973993835	1.73974061570989	0	0	0	0	0	0	
311380000	-2.40132802308049	-7.14993667704144	0	0	0	0	0	0	
316370000	-2.55563033393534	-15.9922965181097	0	0	0	0	0	0	
321360000	-2.6565171214492	-24.0200521766253	0	0	0	0	0	0	
326350000	-2.65371317082656	-32.0693690164718	0	0	0	0	0	0	
331340000	-2.64997506208161	-41.081460644733	0	0	0	0	0	0	
336330000	-2.7682112526272	-49.9301894512691	0	0	0	0	0	0	
341320000	-2.73512519112156	-58.5000019907605	0	0	0	0	0	0	
346310000	-2.84181876671905	-67.6745960904599	0	0	0	0	0	0	
351300000	-2.75497722615024	-75.929257389416	0	0	0	0	0	0	
356290000	-2.55070696141713	-86.423301291539	0	0	0	0	0	0	
361280000	-2.62761146975742	-96.2403518117484	0	0	0	0	0	0	
366270000	-2.47962918086093	-107.969558644284	0	0	0	0	0	0	
371260000	-2.55871628220004	-119.385499292739	0	0	0	0	0	0	
376250000	-2.8912621522021	-130.000632658458	0	0	0	0	0	0	
381240000	-2.84941223281569	-141.052439900341	0	0	0	0	0	0	
386230000	-3.01357512628093	-152.949428826236	0	0	0	0	0	0	
391220000	-3.17350392317195	-164.399910289543	0	0	0	0	0	0	
396210000	-3.45985499053696	-177.227163574069	0	0	0	0	0	0	
401200000	-3.90068105422078	171.822330996012	0	0	0	0	0	0	
406190000	-4.19428826719396	160.808648066767	0	0	0	0	0	0	
411180000	-4.63480354740616	150.339497249233	0	0	0	0	0	0	
416170000	-4.77398988556932	139.265584279591	0	0	0	0	0	0	
421160000	-4.95382894650397	128.880762354278	0	0	0	0	0	0	
426150000	-4.90189624713716	115.189810772299	0	0	0	0	0	0	
431140000	-5.33419743101484	103.750667743503	0	0	0	0	0	0	
436130000	-5.45811341532371	93.4048078066724	0	0	0	0	0	0	
441120000	-5.73435845385523	80.5084847879415	0	0	0	0	0	0	
446110000	-6.18013780927222	71.1963628920768	0	0	0	0	0	0	
451100000	-6.21621932856344	63.6128481382192	0	0	0	0	0	0	
456090000	-5.91232683736629	54.7687460873605	0	0	0	0	0	0	
461080000	-5.81685109419216	43.2693940224097	0	0	0	0	0	0	
466070000	-5.87800306019384	33.1062339913662	0	0	0	0	0	0	
471060000	-6.14330389882744	24.238754113915	0	0	0	0	0	0	
476050000	-6.29183571623745	18.6040588490385	0	0	0	0	0	0	
481040000	-6.45446955896448	11.2130536183331	0	0	0	0	0	0	
486030000	-6.64340984156864	10.0669621695296	0	0	0	0	0	0	
491020000	-5.67584230519809	5.49671308034264	0	0	0	0	0	0	
496010000	-5.45858452171963	-3.38160808877094	0	0	0	0	0	0	
501000000	-5.40210497771576	-7.68680464862006	0	0	0	0	0	0	
505990000	-5.03622422140344	-13.2895975316326	0	0	0	0	0	0	
510980000	-4.91252958456989	-19.0601514354246	0	0	0	0	0	0	
515970000	-4.80360666149026	-24.85835030362	0	0	0	0	0	0	
520960000	-4.68813298273127	-30.3341249388235	0	0	0	0	0	0	
525950000	-4.81686731697298	-34.9601153161763	0	0	0	0	0	0	
530940000	-4.75153223597321	-40.476396262996	0	0	0	0	0	0	
535930000	-4.96042943018726	-44.6152320045901	0	0	0	0	0	0	
540920000	-5.08629875612751	-45.9701077230449	0	0	0	0	0	0	
545910000	-4.65708741633276	-48.8274417069999	0	0	0	0	0	0	
550900000	-4.93323754143282	-52.2230285103649	0	0	0	0	0	0	
555890000	-4.74245107481304	-52.3732040861597	0	0	0	0	0	0	
560880000	-4.40375277610768	-55.3870679448785	0	0	0	0	0	0	
565870000	-4.21058320337426	-59.621804896664	0	0	0	0	0	0	
570860000	-4.4255119604798	-63.1733867358204	0	0	0	0	0	0	
575850000	-4.30307455204395	-65.6739564594852	0	0	0	0	0	0	
580840000	-4.36945087334702	-69.4701023419542	0	0	0	0	0	0	
585830000	-4.56208841173554	-71.9367926374036	0	0	0	0	0	0	
590820000	-4.26865511116532	-73.5639060489179	0	0	0	0	0	0	
595810000	-4.3824949191363	-78.5296729780853	0	0	0	0	0	0	
600800000	-4.58422895359563	-81.0668544791355	0	0	0	0	0	0	
605790000	-4.90084086636134	-82.949478921248	0	0	0	0	0	0	
610780000	-4.95880234778736	-84.3243380110853	0	0	0	0	0	0	
615770000	-5.08149830873012	-86.4041836470596	0	0	0	0	0	0	
620760000	-5.04311299367443	-89.210397019378	0	0	0	0	0	0	
625750000	-5.5685964078461	-91.283913816988	0	0	0	0	0	0	
630740000	-5.46205020021306	-92.6813456842136	0	0	0	0	0	0	
635730000	-6.24061321052065	-96.3696241996787	0	0	0	0	0	0	
640720000	-6.60001433067814	-94.0106256357618	0	0	0	0	0	0	
645710000	-6.76911518690307	-94.4376869138693	0	0	0	0	0	0	
650700000	-7.10286165948484	-94.7422615495763	0	0	0	0	0	0	
655690000	-7.46939675763297	-97.3213371807297	0	0	0	0	0	0	
660680000	-8.26566135356928	-94.2253733883325	0	0	0	0	0	0	
665670000	-8.17541154151442	-96.0372124544855	0	0	0	0	0	0	
670660000	-9.23765339823816	-92.2585142229006	0	0	0	0	0	0	
675650000	-8.80226116846943	-89.4252522731167	0	0	0	0	0	0	
680640000	-9.08542267177425	-90.9302793064739	0	0	0	0	0	0	
685630000	-10.1164790929374	-89.6393211268635	0	0	0	0	0	0	
690620000	-10.9956315621256	-75.7197230140622	0	0	0	0	0	0	
695610000	-9.69807571850464	-71.4928712138547	0	0	0	0	0	0	
700600000	-10.3632437191041	-66.668198122514	0	0	0	0	0	0	
705590000	-9.08671461240626	-55.9838198824282	0	0	0	0	0	0	
710580000	-7.93923324218373	-55.8389872818022	0	0	0	0	0	0	
715570000	-7.3771560091271	-54.1824674637449	0	0	0	0	0	0	
720560000	-6.30223216760697	-55.8400822381472	0	0	0	0	0	0	
725550000	-5.72799356486295	-56.5333330801147	0	0	0	0	0	0	
730540000	-5.18319306914482	-58.2247998930268	0	0	0	0	0	0	
735530000	-4.73278376562323	-58.8534174510462	0	0	0	0	0	0	
740520000	-4.21793688095563	-60.0952024394384	0	0	0	0	0	0	
745510000	-3.79900841381216	-61.8825752003767	0	0	0	0	0	0	
750500000	-3.40975625642672	-62.56184025308	0	0	0	0	0	0	
755490000	-3.01947840910184	-65.0273388447369	0	0	0	0	0	0	
760480000	-2.67552155802138	-66.8191955270472	0	0	0	0	0	0	
765470000	-2.47166265812288	-68.5493755412948	0	0	0	0	0	0	
770460000	-2.2336311689991	-70.0515407804248	0	0	0	0	0	0	
775450000	-1.99628890639214	-71.9284165950985	0	0	0	0	0	0	
780440000	-1.82326232827835	-73.5536066910861	0	0	0	0	0	0	
785430000	-1.60421479889183	-75.5705404436721	0	0	0	0	0	0	
790420000	-1.43842912512674	-77.7211661393131	0	0	0	0	0	0	
795410000	-1.36873107447187	-80.2393283218117	0	0	0	0	0	0	
800400000	-1.33675686803674	-81.520521623115	0	0	0	0	0	0	
805390000	-1.24227827240437	-83.1428047907494	0	0	0	0	0	0	
810380000	-1.22341947921407	-84.7676143527017	0	0	0	0	0	0	
815370000	-1.25448945012873	-85.5735235426394	0	0	0	0	0	0	
820360000	-1.19094723348301	-86.1942073509171	0	0	0	0	0	0	
825350000	-1.13750307646526	-87.0452080950471	0	0	0	0	0	0	
830340000	-0.996122744134607	-88.221639505638	0	0	0	0	0	0	
835330000	-0.94355926234326	-89.5628555314911	0	0	0	0	0	0	
840320000	-0.822473949477761	-90.7528883590662	0	0	0	0	0	0	
845310000	-0.745664635426471	-92.3917016950535	0	0	0	0	0	0	
850300000	-0.714082867048838	-93.6750769584921	0	0	0	0	0	0	
855290000	-0.677243306135572	-94.61647363847	0	0	0	0	0	0	
860280000	-0.627346577654758	-95.6564511358271	0	0	0	0	0	0	
865270000	-0.653943023516418	-96.8112576256439	0	0	0	0	0	0	
870260000	-0.690746563577275	-97.6520838544997	0	0	0	0	0	0	
875250000	-0.689186271146967	-98.2039281996866	0	0	0	0	0	0	
880240000	-0.637718974765752	-98.7770492814963	0	0	0	0	0	0	
885230000	-0.539090762872612	-99.5364599059247	0	0	0	0	0	0	
890220000	-0.447059041889356	-100.488637309001	0	0	0	0	0	0	
895210000	-0.363563086995902	-101.543053708154	0	0	0	0	0	0	
900200000	-0.31417587885306	-102.68653927929	0	0	0	0	0	0	
905190000	-0.296419680262966	-103.706611779365	0	0	0	0	0	0	
910180000	-0.299743670963519	-104.908567007119	0	0	0	0	0	0	
915170000	-0.328861736361927	-106.374932007994	0	0	0	0	0	0	
920160000	-0.375535193123153	-107.739661314686	0	0	0	0	0	0	
925150000	-0.395654909449322	-109.041399764834	0	0	0	0	0	0	
930140000	-0.399743025986474	-110.471863810053	0	0	0	0	0	0	
935130000	-0.390954918774568	-111.76272376112	0	0	0	0	0	0	
940120000	-0.395566103210817	-113.002421933044	0	0	0	0	0	0	
945110000	-0.408985262573982	-113.89660958497	0	0	0	0	0	0	
950100000	-0.447151346398031	-114.693498246822	0	0	0	0	0	0	
955090000	-0.498597624948578	-115.550512625048	0	0	0	0	0	0	
960080000	-0.592199178179287	-116.444870407793	0	0	0	0	0	0	
965070000	-0.674514831999718	-117.350078472571	0	0	0	0	0	0	
970060000	-0.757067099429021	-118.354712106871	0	0	0	0	0	0	
975050000	-0.843994809814781	-119.552342884916	0	0	0	0	0	0	
980040000	-0.94823418314525	-121.06973808543	0	0	0	0	0	0	
985030000	-1.08303311603577	-122.465696328318	0	0	0	0	0	0	
990020000	-1.23756819208354	-123.48926655987	0	0	0	0	0	0	
995010000	-1.38585675851609	-124.550418011351	0	0	0	0	0	0	
1000000000	-1.56776686001977	-125.949461410106	0	0	0	0	0	0	
