!Agilent N9923A: A.07.32
!Date: Tuesday, 25 February 2020 01:15:10
!Model: N9923A
!Serial: MY52412229
!GPS Latitude: 
!GPS Longitude: 
!GPS TimeStamp: 0001-01-01 00:00:00Z
!GPS Seconds Since Last Read: 0
!CHECKSUM:1886457294
!Correction: S11(ON U)
!S1P File: Measurement: S11:
# Hz S DB R 50
2000000	-0.0311651401542562	179.544448289174
6990000	-0.0395019708978023	178.414712852811
11980000	-0.047428990375825	177.313118233564
16970000	-0.0550628343564491	176.206357507509
21960000	-0.062132236019598	175.087795505397
26950000	-0.0698764141589276	173.983520826622
31940000	-0.0756799546766007	172.866549986657
36930000	-0.0820424301528181	171.779153723742
41920000	-0.086434497229765	170.740353962969
46910000	-0.0907286797365571	169.703026175502
51900000	-0.0944679827722993	168.660375854926
56890000	-0.0984974381884049	167.604850093564
61880000	-0.103656674352921	166.511608065896
66870000	-0.114211267568051	165.364328148773
71860000	-0.120986355728498	164.218386562845
76850000	-0.12685845042557	162.998728734054
81840000	-0.142170874744916	161.77722574261
86830000	-0.166197305805988	160.688255809555
91820000	-0.149415981370113	159.57402506565
96810000	-0.144330398083005	158.348817081083
101800000	-0.145453160390141	157.092140051968
106790000	-0.151898244761867	155.810536303203
111780000	-0.161564603415541	154.477462277608
116770000	-0.170042665580734	153.087187081747
121760000	-0.182203105818298	151.662382396871
126750000	-0.197860129953054	150.205376220225
131740000	-0.234559781697785	148.729299381077
136730000	-0.277919815129401	147.459087240411
141720000	-0.285456945030328	146.410351602649
146710000	-0.280926467498411	145.023121107827
151700000	-0.285220483291392	143.660023164275
156690000	-0.292684010610268	142.136893632957
161680000	-0.3038217870153	140.596835457439
166670000	-0.295460072882864	138.968713165145
171660000	-0.289881333922904	137.142475069839
176650000	-0.301950142787812	135.174911053868
181640000	-0.312182027132191	133.201046264207
186630000	-0.326804928772944	131.129688590323
191620000	-0.357636681415464	129.028026492812
196610000	-0.421806475356457	126.805631026563
201600000	-0.531646506454764	124.442197962588
206590000	-0.779694511659794	122.415693152551
211580000	-0.912995018653723	122.488080668694
216570000	-0.731028668447024	121.222572479451
221560000	-0.632583159445723	118.708914459563
226550000	-0.592689290232895	115.80260296138
231540000	-0.618735485278229	113.047599932213
236530000	-0.614871607975384	110.188543734866
241520000	-0.639164369288455	107.167564981612
246510000	-0.676406780216102	103.94569823329
251500000	-0.719786810348835	100.74160292209
256490000	-0.781146963232008	97.3760539813514
261480000	-0.86994398895138	93.7308166992255
266470000	-0.985925864403517	90.107350894091
271460000	-1.10199536863543	86.3754931038986
276450000	-1.2385246450238	82.4456774142973
281440000	-1.43925844091209	78.1118412405261
286430000	-1.68903191443474	74.9523527450178
291420000	-1.65954300114638	71.3912916513404
296410000	-1.67849301531568	65.9781114635301
301400000	-1.81045163300383	60.5252182139461
306390000	-1.87675401712628	53.9341291786279
311380000	-2.05404734937987	46.4635698197013
316370000	-2.36340001466075	37.6954459940652
321360000	-2.91163373891864	29.1448198687272
326350000	-3.50348365872104	21.1658819691155
331340000	-3.51863935987982	9.42412905145489
336330000	-4.22296306811899	-4.23446609770837
341320000	-4.85243986309628	-21.1933360588522
346310000	-5.77964303436554	-42.5625312588417
351300000	-6.10975678979009	-72.4663281652928
356290000	-5.96659821364633	-115.480181768701
361280000	-5.66532434244583	-163.37596021259
366270000	-4.47275159982374	155.444441529335
371260000	-3.51999287969932	120.402777905652
376250000	-3.1276272448707	91.6082881284481
381240000	-2.89210610711434	67.5368805985679
386230000	-2.98866371370851	44.3719630586699
391220000	-3.62583461948987	22.4541534311261
396210000	-4.54064745414174	1.0801131671774
401200000	-5.54392537374479	-19.1296014891963
406190000	-6.28776225616071	-46.6395495180473
411180000	-8.13661979346966	-80.122065439348
416170000	-9.91885329866815	-112.121306639025
421160000	-10.8180171095996	-145.905258493139
426150000	-10.2744975071646	-177.419426895429
431140000	-9.42924295710055	153.934466952069
436130000	-8.16781782116826	129.313735776338
441120000	-7.478577510704	107.203616891217
446110000	-7.4404105425592	91.6904373118901
451100000	-7.18188610897661	83.2055088160985
456090000	-6.41688093607379	74.5558766369746
461080000	-5.6129187775498	62.5850300639598
466070000	-5.39919243943252	52.2209588549197
471060000	-5.11113164715612	43.8994389239245
476050000	-5.08414705338643	34.763766497126
481040000	-5.00728483786927	27.6379261871658
486030000	-5.15880195244293	23.1197931224882
491020000	-4.98488143821471	16.9676356999761
496010000	-4.88557810399409	10.1283502820261
501000000	-4.94722925537709	6.92130793957735
505990000	-4.59485352556645	1.13367641690352
510980000	-4.58906175275965	-3.31496534772839
515970000	-4.3924516440334	-8.72628144643349
520960000	-4.35282080601107	-13.6210737433107
525950000	-4.43734860142685	-17.3061197560872
530940000	-4.35599102978714	-21.9083703679589
535930000	-4.4677028486573	-26.2755543152624
540920000	-4.59583490764146	-28.8707746607534
545910000	-4.44583453924158	-32.1281959533605
550900000	-4.61243034601379	-35.5356398834232
555890000	-4.51369342653234	-36.87380215963
560880000	-4.14484762972995	-40.4665975874586
565870000	-4.25680265502086	-45.1557484658417
570860000	-4.58216549967122	-47.3790334827578
575850000	-4.68092556205563	-49.2893746559615
580840000	-4.86313762484079	-50.5961293652612
585830000	-4.93389769371488	-52.1863664741998
590820000	-4.80477001349831	-54.4951924230075
595810000	-5.27544455984401	-57.4888618150157
600800000	-5.62806527094875	-55.6103797070048
605790000	-5.45960974218787	-54.5724854161091
610780000	-5.21528522488691	-55.8096722398859
615770000	-5.21728418238967	-54.9696979160119
620760000	-4.9779504218581	-56.5484761680532
625750000	-4.92122846801717	-56.0020389162687
630740000	-4.67221613590516	-55.7790217578467
635730000	-4.29880676619977	-54.0478928508116
640720000	-3.65335759774167	-56.2317665211637
645710000	-3.43353837576178	-58.3473898926016
650700000	-3.06016932069108	-59.7117439947343
655690000	-2.70236440677437	-61.7419008709503
660680000	-2.3465730005164	-64.1968634825854
665670000	-2.15187559408062	-67.3238857802341
670660000	-1.99917695303126	-69.9033955671614
675650000	-1.90198353771608	-72.9171755381747
680640000	-1.85689561832226	-75.7834494868877
685630000	-1.81597817625591	-78.5301105419137
690620000	-1.84990664661997	-81.794599215083
695610000	-1.88264374590548	-84.6491193645006
700600000	-1.9932766163459	-87.6831603475204
705590000	-2.09784861082228	-90.2476762602864
710580000	-2.31576103118746	-92.9870889492312
715570000	-2.56545880673488	-95.1602365814545
720560000	-2.87599760393133	-97.496643193565
725550000	-3.26720725590344	-98.876924991372
730540000	-3.73009136100022	-100.686865104339
735530000	-4.3520676600117	-101.135554078294
740520000	-4.98494170390701	-101.034203033226
745510000	-5.74279460922262	-98.554146657787
750500000	-6.44226517353968	-92.7358637511993
755490000	-6.12070535873184	-84.666557513958
760480000	-5.52260825763868	-80.5933165509179
765470000	-4.95903354679426	-77.3629714751797
770460000	-4.25626822258242	-76.2784465358859
775450000	-3.65966600557179	-76.6508471535659
780440000	-3.22029939828555	-77.2376085704027
785430000	-2.75859498463372	-78.8317365424252
790420000	-2.4191783170038	-80.7692392332027
795410000	-2.1966898988	-83.5565906710105
800400000	-2.10731250258186	-84.9571320980788
805390000	-1.92513475305505	-86.3938254008808
810380000	-1.78265624855504	-88.2822691747
815370000	-1.73606813530791	-89.7978524264828
820360000	-1.68014309055994	-90.3650785838667
825350000	-1.54779142152067	-91.5995532342267
830340000	-1.46055474367097	-92.7540915975901
835330000	-1.37049942402885	-94.0559383205966
840320000	-1.28175445824675	-95.2630462441507
845310000	-1.21930985525876	-96.7257785651585
850300000	-1.18598348786099	-98.0535227157209
855290000	-1.16480048052212	-99.0408767940222
860280000	-1.11544906088165	-99.9923920716095
865270000	-1.11433182051572	-100.991144901203
870260000	-1.10541856989384	-101.797273022312
875250000	-1.08446692686516	-102.628258750919
880240000	-1.0622372257133	-103.587057609668
885230000	-1.05455457591192	-104.514950569608
890220000	-1.03830464049297	-105.517762236613
895210000	-1.01577535794448	-106.555932884068
900200000	-1.01115431542499	-107.677699834657
905190000	-1.02404609686461	-108.592765945574
910180000	-1.02705273308163	-109.527435121585
915170000	-1.05520030948752	-110.535660232181
920160000	-1.07414977272419	-111.401189365362
925150000	-1.09599567496023	-112.229380068238
930140000	-1.11941099478	-113.129291818936
935130000	-1.14356025582083	-114.063139061301
940120000	-1.17963500553993	-114.944783999021
945110000	-1.20796224838753	-115.677859525931
950100000	-1.23738057846732	-116.331550656549
955090000	-1.27510722460756	-116.94354890797
960080000	-1.31280269751611	-117.493504583952
965070000	-1.33280660040521	-117.786064210258
970060000	-1.32114794742545	-118.221722337684
975050000	-1.33621990241768	-118.736922973255
980040000	-1.34632289281977	-119.180985900845
985030000	-1.35136644597366	-119.684401050959
990020000	-1.35317512814094	-120.331445699459
995010000	-1.36952837715251	-120.968967238881
1000000000	-1.40496234435224	-121.846968251436
