!Agilent N9923A: A.07.32
!Date: Saturday, 22 February 2020 04:50:10
!Model: N9923A
!Serial: MY52412229
!GPS Latitude: 
!GPS Longitude: 
!GPS TimeStamp: 0001-01-01 00:00:00Z
!GPS Seconds Since Last Read: 0
!CHECKSUM:1722532792
!Correction: S11(ON U)
!S1P File: Measurement: S11:
# Hz S DB R 50
2000000	-0.00185890442003529	-1.02530509493814
6990000	-0.0172593105128479	-3.59550524442594
11980000	-0.012637126933276	-6.1758523231119
16970000	-0.0177096152261079	-8.93794934314414
21960000	-0.0956244175099251	-12.5602694996348
26950000	-0.203366696804692	-11.8502993815922
31940000	-0.139117202721411	-15.4991275160057
36930000	-0.227611831570257	-18.1025029955814
41920000	-0.411612271425566	-19.827025463445
46910000	-0.221535136479775	-21.1788188162758
51900000	-0.148593697278845	-24.1912557890319
56890000	-0.178223656243701	-26.98928990656
61880000	-0.200868949004215	-29.9370283792918
66870000	-0.452122289817116	-33.3919925601909
71860000	-0.554714621391877	-33.2209392561556
76850000	-0.642214529926985	-36.453197723162
81840000	-0.662334164356066	-36.8842497433004
86830000	-0.738631592538368	-39.0724331324471
91820000	-0.796283080538291	-39.6131482009744
96810000	-0.558980658276042	-40.1454287348152
101800000	-0.321507464101728	-42.9491286734963
106790000	-0.253729261597791	-45.8862424528825
111780000	-0.231036799762997	-48.5283760732239
116770000	-0.2507350508376	-51.3174638973796
121760000	-0.295480415823779	-53.9250379776082
126750000	-0.360866093778164	-56.7377638387224
131740000	-0.527656575096601	-60.1646757258038
136730000	-1.08699265630763	-62.5818580004823
141720000	-1.37707385987364	-59.2089695837166
146710000	-0.972720605015975	-59.3755361456378
151700000	-0.73930439920158	-61.3782650608355
156690000	-0.657287137208696	-63.6761000656943
161680000	-0.616982776370551	-65.549116263261
166670000	-0.525189259369582	-67.128697959057
171660000	-0.443586914243338	-69.4299370243957
176650000	-0.430537341225652	-71.8319770237892
181640000	-0.405886842976279	-74.1307479181102
186630000	-0.429364044775931	-76.6291884243888
191620000	-0.521173545944778	-79.0178973377564
196610000	-0.714809940199053	-80.9003047887185
201600000	-0.887966961669901	-82.3770451053142
206590000	-1.12834787852219	-83.1680027540839
211580000	-1.23739663891346	-82.5215662610059
216570000	-1.10742346532647	-82.1188621838903
221560000	-0.806921776674951	-83.1574947859815
226550000	-0.593444019998826	-85.2706418191997
231540000	-0.514236601410963	-87.4018588004601
236530000	-0.450154651346151	-89.3845013986976
241520000	-0.405227326334761	-91.2194159608373
246510000	-0.373423154322303	-93.3686500007655
251500000	-0.388053870780897	-95.3635755781262
256490000	-0.404215580805759	-97.3398789780408
261480000	-0.444807199650639	-99.4776989545524
266470000	-0.503478139635921	-101.616927421131
271460000	-0.585136636874251	-103.495711476444
276450000	-0.682833761991338	-105.160452397999
281440000	-0.822522092476225	-106.325092352272
286430000	-0.871032091184741	-106.624331229563
291420000	-0.718229460701301	-107.270243683363
296410000	-0.609253705547471	-109.209819275035
301400000	-0.568518428496344	-110.91661842626
306390000	-0.525897029240002	-113.185963048602
311380000	-0.513372743215095	-115.646428333818
316370000	-0.551207063771419	-118.11473489855
321360000	-0.65102588956374	-120.572193227265
326350000	-1.15776948042902	-120.231150633863
331340000	-0.543467812851601	-122.762929945219
336330000	-0.587296254894728	-125.540509157374
341320000	-0.622447802565303	-127.972545094009
346310000	-0.680325016617431	-130.533116763446
351300000	-0.708503859040573	-133.251638669278
356290000	-0.734941720523738	-136.443980059352
361280000	-0.812748541346611	-139.795256656844
366270000	-0.879090868595145	-143.594575977091
371260000	-1.01429673302949	-147.801845520126
376250000	-1.28775492338548	-150.996556899711
381240000	-1.30225122746961	-155.111243172958
386230000	-1.52337162734842	-160.121505362936
391220000	-1.73631511243767	-166.048696653043
396210000	-2.22782497797466	-173.212174554857
401200000	-2.83822838387361	-179.184623219479
406190000	-3.42748435738585	173.354456112581
411180000	-4.25365821082941	165.113695060146
416170000	-5.12883215237024	155.411296018092
421160000	-6.31045966408987	142.738706302703
426150000	-8.22556807725897	125.786119629509
431140000	-10.8326224748959	111.634230829215
436130000	-12.5293218487119	86.672034388409
441120000	-14.9541600003573	46.951936967603
446110000	-15.5879412723279	15.7964534936066
451100000	-15.4231259075291	-2.32815847055902
456090000	-12.3764633799765	-11.3143012744668
461080000	-10.5743602913988	-23.692259961983
466070000	-8.45876902466462	-36.3583248326581
471060000	-7.41938754708679	-47.2312099465261
476050000	-6.88478077183449	-56.7208924486622
481040000	-6.4546031813771	-63.3924678991289
486030000	-6.39604759800205	-65.9483060389945
491020000	-5.69282543147077	-68.322718007109
496010000	-5.14322830421811	-73.4913139040152
501000000	-5.12724907696733	-75.2303912808422
505990000	-4.51067951723809	-78.0849349083836
510980000	-4.3551226247549	-80.8631766269095
515970000	-3.8967219812046	-84.1405601730342
520960000	-3.65520006481378	-88.2427605814916
525950000	-3.64454785666461	-91.5909883181204
530940000	-3.64654742712833	-94.572074476024
535930000	-3.66827379982738	-96.4464230184125
540920000	-3.81246850783627	-97.2721056808194
545910000	-3.61038786101808	-99.0479621967243
550900000	-3.73675641068868	-100.265476310741
555890000	-3.71146824526597	-100.79478450547
560880000	-3.48130605642286	-102.428836727928
565870000	-3.34688618214376	-104.933575374268
570860000	-3.46442498948304	-107.481049729354
575850000	-3.45246590023839	-108.146879680159
580840000	-3.48583005176284	-110.286588815489
585830000	-3.61082219447326	-111.886051561178
590820000	-3.51641619048912	-111.86619389794
595810000	-3.50115450580154	-115.219606195796
600800000	-3.86570057889407	-117.336909794895
605790000	-4.14466239719408	-118.285598006671
610780000	-4.21221588236875	-118.781750019901
615770000	-4.27804637099638	-120.345997470529
620760000	-4.26831561929218	-122.133791920668
625750000	-4.69614394484084	-123.559670212116
630740000	-4.60332877058726	-123.925411355713
635730000	-5.12048217722299	-127.725121330582
640720000	-5.49402556235806	-127.055237172867
645710000	-6.02765868915309	-128.759646867662
650700000	-6.53504824659505	-126.702373095561
655690000	-6.8703143496504	-128.111800193397
660680000	-7.67888434622421	-124.870032238752
665670000	-7.60711333859413	-126.294980246861
670660000	-8.85124229174654	-124.23224927598
675650000	-8.85025432656812	-120.129033401293
680640000	-9.52599051510831	-118.554174703517
685630000	-10.1847095373332	-112.674572592271
690620000	-10.6204011121292	-103.583235251391
695610000	-9.77421661040877	-100.059385432553
700600000	-10.9997703207506	-95.844842730769
705590000	-9.56029077504233	-81.3168330178584
710580000	-8.53773441668315	-82.0786836493235
715570000	-8.11784299019628	-77.5466303743391
720560000	-6.82845903787686	-78.1877957050764
725550000	-6.07218798832851	-77.9831805534472
730540000	-5.53632568933487	-79.3464451684928
735530000	-5.02906216561658	-78.6892874855687
740520000	-4.51762944679678	-79.558726023068
745510000	-4.10373082408185	-80.7972002141068
750500000	-3.68994151926048	-80.9549776278932
755490000	-3.20575223759366	-83.8379610651108
760480000	-2.9716487386093	-85.8855721037891
765470000	-2.74630834447967	-87.9236242572491
770460000	-2.54652698954916	-89.8605076560968
775450000	-2.42600293975367	-91.3963031411262
780440000	-2.30795604922374	-92.5462513018331
785430000	-2.1175571501109	-93.7340777915371
790420000	-2.02702569826596	-95.4522510417061
795410000	-2.02616842308487	-96.9949037865246
800400000	-1.95982286102279	-97.5827619163938
805390000	-1.8789755982938	-99.0251706997944
810380000	-1.83318170189749	-100.143578783303
815370000	-1.79459898463327	-101.122693832252
820360000	-1.74083185533412	-101.454973298017
825350000	-1.62556185794029	-102.259010077983
830340000	-1.50846967376629	-103.201565608082
835330000	-1.4768128885958	-104.241917471743
840320000	-1.39610131183984	-105.189410997975
845310000	-1.34479200185921	-106.662611372554
850300000	-1.33975645683517	-107.835285388029
855290000	-1.32048170176288	-108.883668297894
860280000	-1.26024451693151	-109.927891322979
865270000	-1.28114908278517	-111.069346542409
870260000	-1.29157836952308	-111.766539326032
875250000	-1.29496861761214	-112.320758685863
880240000	-1.2917897091777	-112.875319807829
885230000	-1.27634626370727	-113.530518414464
890220000	-1.2547870272946	-114.303841238344
895210000	-1.22418058801862	-115.367010044308
900200000	-1.20919382738263	-116.653628729654
905190000	-1.21598571313089	-117.759313635644
910180000	-1.21058577090102	-118.967738705219
915170000	-1.23977607583827	-120.210654593714
920160000	-1.279239154324	-121.172381701296
925150000	-1.32372474851063	-121.908853878252
930140000	-1.36238550110214	-122.869926689375
935130000	-1.41781565078823	-123.843494546805
940120000	-1.4725338749153	-124.905513637355
945110000	-1.52100217099486	-125.99760463812
950100000	-1.57540237492792	-127.266051681397
955090000	-1.66573456532178	-128.687896861401
960080000	-1.78374848659651	-129.817501547309
965070000	-1.8771551823575	-130.818547784601
970060000	-1.97861260698522	-131.731676584216
975050000	-2.08039422099983	-132.746233955478
980040000	-2.19579213923403	-134.080094757945
985030000	-2.36485980141459	-135.751797697334
990020000	-2.59578518012292	-137.127964065009
995010000	-2.85761385094679	-138.49431538973
1000000000	-3.13603680508027	-140.064679565627
