!Agilent N9923A: A.07.32
!Date: Saturday, 22 February 2020 05:07:37
!Model: N9923A
!Serial: MY52412229
!GPS Latitude: 
!GPS Longitude: 
!GPS TimeStamp: 0001-01-01 00:00:00Z
!GPS Seconds Since Last Read: 0
!CHECKSUM:0980146369
!Correction: S11(ON U)
!S1P File: Measurement: S11:
# Hz S DB R 50
2000000	-0.00544066316767685	-1.11715859890433
6990000	-0.0156673323942427	-3.91578170715712
11980000	0.00106594066739724	-6.70286456989467
16970000	0.0037141574068561	-9.69622594962977
21960000	-0.124460377526653	-13.7669462908999
26950000	-0.182683835231457	-12.9968420509257
31940000	-0.154121948589981	-16.6422151038631
36930000	-0.233116512932263	-19.6975966810529
41920000	-0.534271949257491	-21.4159293065532
46910000	-0.211758078685244	-22.610679276097
51900000	-0.129955215207281	-26.1239037361182
56890000	-0.160985234208024	-29.2990782241025
61880000	-0.260290566522241	-32.5249047586007
66870000	-0.600359773222047	-34.3901718103223
71860000	-0.45330406914693	-35.5852749795786
76850000	-0.583355235510329	-38.8534600285979
81840000	-0.64889615824403	-40.6311727166353
86830000	-0.970923277681713	-42.5052893353612
91820000	-0.840899031364943	-42.0487231805914
96810000	-0.486851538745022	-43.0170587544037
101800000	-0.271002496754052	-46.3159906869909
106790000	-0.216351213352436	-49.3795240417632
111780000	-0.191142891568281	-52.2154957219098
116770000	-0.226162417407111	-55.1999610344384
121760000	-0.278490493376094	-58.154072683369
126750000	-0.371451203716526	-61.4184609172186
131740000	-0.670140848081631	-65.2866082955606
136730000	-1.32984295909092	-65.7513287395405
141720000	-1.15438979575536	-62.5378804571101
146710000	-0.817035169143452	-64.3598908979383
151700000	-0.657816870895474	-66.3716004218288
156690000	-0.621316767009202	-68.7685583587666
161680000	-0.589565221608189	-70.7884222170448
166670000	-0.506799195657924	-72.5849580827847
171660000	-0.433891029809189	-75.1143395163416
176650000	-0.416736608511356	-77.6709018559201
181640000	-0.393523093721331	-79.987689389912
186630000	-0.385004856499781	-82.5083916254156
191620000	-0.457940583774201	-85.1005247100839
196610000	-0.660946075772153	-87.2811154305045
201600000	-0.88500018621357	-88.7458201642303
206590000	-1.09327481609118	-89.4703795980627
211580000	-1.20019736767695	-89.216055121392
216570000	-1.01534998201494	-89.061146846667
221560000	-0.689151339467883	-90.568990294768
226550000	-0.477836957774346	-93.1126929144395
231540000	-0.413098215469385	-95.4815209572654
236530000	-0.361100753614828	-97.7188026835693
241520000	-0.343452043563943	-99.7871178616311
246510000	-0.330579502207617	-102.214738163518
251500000	-0.365099650297826	-104.516667234819
256490000	-0.385098483487473	-106.801403216082
261480000	-0.413891872268531	-109.259554195831
266470000	-0.456467614904947	-111.672697371805
271460000	-0.511020263410033	-113.800919161728
276450000	-0.556600074938608	-115.844934269615
281440000	-0.658018485012191	-117.771142039389
286430000	-0.683127320222415	-119.344066457098
291420000	-0.685889673811448	-122.371212654684
296410000	-0.709002462212534	-124.332944958076
301400000	-2.55262859706314	-127.130852798088
306390000	-0.657735953628247	-122.643689425178
311380000	-0.50113411729668	-127.57499931581
316370000	-0.503124604355294	-131.130259553902
321360000	-0.524171773307803	-134.196300008476
326350000	-0.519139471412805	-137.402261059521
331340000	-0.562211852118747	-140.906856866537
336330000	-0.626353408045164	-144.404359699656
341320000	-0.681676582623212	-148.381228427977
346310000	-0.816994621393281	-152.436292273492
351300000	-0.878403343606819	-156.838951139076
356290000	-0.934689697190888	-161.764140278891
361280000	-1.13795696351608	-167.559777035975
366270000	-1.37217780682481	-173.808497224443
371260000	-1.73357149075553	179.232981644133
376250000	-2.34549611157478	174.025208585686
381240000	-2.45815104694613	167.16065104473
386230000	-2.89204016488458	158.010857410458
391220000	-3.45083484634007	146.81141892027
396210000	-4.44756259417514	135.01366344186
401200000	-5.59215241644203	125.281190753541
406190000	-6.39342440236109	111.892648710644
411180000	-7.92401159508935	97.11866306602
416170000	-9.0048451569293	83.0289542737308
421160000	-9.71380994837277	69.546686583919
426150000	-9.30410969290432	51.5479196753975
431140000	-9.43573634938674	36.9454461835583
436130000	-8.11131062456744	18.6941552981994
441120000	-7.7747083481322	-0.688437917198566
446110000	-7.56850326316834	-12.1129547808582
451100000	-7.10102970694566	-19.7332300668494
456090000	-6.05243067439034	-27.0559429267536
461080000	-5.48903943101645	-37.2819021052738
466070000	-5.10048478084713	-45.2804559718958
471060000	-4.76342813212674	-52.9935340902684
476050000	-4.9331307272759	-59.1602428528903
481040000	-4.83103053747919	-63.5969266560779
486030000	-4.85272786372341	-65.4184326737858
491020000	-4.44002814071512	-68.0620241047113
496010000	-4.11788224278739	-72.2626289699262
501000000	-4.04464067572847	-74.0977992388089
505990000	-3.74163905079769	-77.0028627520562
510980000	-3.61171697487191	-79.786556969973
515970000	-3.44632900149168	-83.1711772397632
520960000	-3.32871096370216	-86.8801898935476
525950000	-3.39916291082507	-89.8822118717453
530940000	-3.43757048119001	-92.9620118579396
535930000	-3.51570314351946	-94.7474038164565
540920000	-3.66227547880603	-95.5472438062605
545910000	-3.52772222926104	-97.0319132738956
550900000	-3.70020636509026	-98.5572143162112
555890000	-3.71353182968174	-98.8014791780002
560880000	-3.53044775321111	-100.462101203147
565870000	-3.4502785372943	-103.41693762847
570860000	-3.65794130990811	-106.150534712123
575850000	-3.68087433681562	-106.319122747741
580840000	-3.7109395784729	-108.551663093885
585830000	-3.88182189889691	-109.948524392494
590820000	-3.82824195773873	-110.111238650512
595810000	-3.86693668397162	-113.180046380862
600800000	-4.34032873534025	-114.732277552316
605790000	-4.58929074296656	-115.60043459759
610780000	-4.68865372776459	-116.653145352941
615770000	-4.8273670048217	-118.567188224192
620760000	-4.96331402452742	-120.536581758728
625750000	-5.47021543009492	-121.121053606297
630740000	-5.40492233581871	-121.977214304305
635730000	-6.42410734098369	-124.405371888575
640720000	-6.74212807390593	-121.574348897382
645710000	-7.47015588449707	-121.442717744869
650700000	-7.78932291998257	-117.037381991121
655690000	-8.16007853959608	-117.173786559524
660680000	-8.67100415269254	-111.623322631715
665670000	-8.70001710975548	-112.966508658999
670660000	-9.47015795501668	-105.323662086703
675650000	-8.94625288476648	-101.695458315135
680640000	-9.32371010829069	-99.1736517423293
685630000	-9.3348384601223	-91.979174610038
690620000	-8.69450813212144	-84.0569573583042
695610000	-8.09658628377406	-86.3784091192137
700600000	-8.52513951453047	-79.9876049027126
705590000	-6.98959263355036	-75.1740180685325
710580000	-6.29108039105264	-77.2240176448398
715570000	-5.72214519636996	-76.2956483172815
720560000	-4.95304838780318	-78.7920945994435
725550000	-4.53153168116416	-79.0294367905177
730540000	-4.09044595926393	-80.6759843225918
735530000	-3.74904157523938	-80.6758606663357
740520000	-3.36988807528813	-82.2502275227121
745510000	-3.1755937138744	-83.7372494877883
750500000	-2.88953394977143	-84.3757570730222
755490000	-2.56805955861625	-87.2858420005596
760480000	-2.46735726407317	-89.0762092679835
765470000	-2.31693835498491	-90.7451274842719
770460000	-2.21709712894481	-92.231800182963
775450000	-2.15395109205683	-93.3996162359037
780440000	-2.11564943584423	-93.9067000048215
785430000	-1.94883920360787	-94.7519724002796
790420000	-1.84254479599795	-96.2568449216603
795410000	-1.85341012700332	-97.7274598952892
800400000	-1.75476203780877	-98.2574335968002
805390000	-1.64973657903428	-99.6788450901813
810380000	-1.62508107057952	-100.957933265116
815370000	-1.59743758271066	-101.547466561741
820360000	-1.54393691918862	-102.098129733581
825350000	-1.48711029436897	-102.814553106942
830340000	-1.40255337398625	-103.734004007292
835330000	-1.37882432277108	-104.702375519154
840320000	-1.30243281239792	-105.708114630901
845310000	-1.25364490699338	-107.162675265778
850300000	-1.25299723960877	-108.277792288709
855290000	-1.23805771597231	-109.219474780164
860280000	-1.19758047058278	-110.075002689096
865270000	-1.2239178772547	-111.057890288561
870260000	-1.24596924342492	-111.703167788132
875250000	-1.25225755182059	-112.281803550769
880240000	-1.23664294183106	-112.848823527212
885230000	-1.20410586373251	-113.600877773526
890220000	-1.17079367016929	-114.530104934903
895210000	-1.15000091651897	-115.635038102129
900200000	-1.14728028045727	-116.835693275996
905190000	-1.17776333359211	-117.869877856726
910180000	-1.20014756665141	-118.980196527086
915170000	-1.2437541095172	-120.22658456794
920160000	-1.30300247203446	-121.173698672507
925150000	-1.34143071573283	-121.958683482076
930140000	-1.36356301875644	-122.949447401788
935130000	-1.41159207869325	-123.964483151907
940120000	-1.46578290324876	-124.901826326804
945110000	-1.51549954316186	-125.898172112286
950100000	-1.59278239435875	-127.17159665455
955090000	-1.70220934385403	-128.578179241651
960080000	-1.8504011535163	-129.922517384384
965070000	-1.96719421986665	-131.143231111262
970060000	-2.09539162836427	-132.119976730696
975050000	-2.18711978349661	-133.321259842664
980040000	-2.32283359525711	-134.810283001909
985030000	-2.53972947265157	-136.40008513266
990020000	-2.82636732547082	-137.712280462045
995010000	-3.18026883474142	-138.996776795564
1000000000	-3.55402057794948	-140.353540219949
